read_reg 0x7004 0xffffffff 0x00000000  # actual addr: 0x1c01
write_reg 0x7004 0x00000000  # actual addr: 0x1c01
write_reg 0x5004 0x00000000  # actual addr: 0x1401
write_reg 0x6004 0x00000000  # actual addr: 0x1801
write_reg 0x4004 0x00000000  # actual addr: 0x1001
write_reg 0x3004 0x00000000  # actual addr: 0x0c01
read_reg 0x7000 0xffffffff 0x00000000  # actual addr: 0x1c00
read_reg 0x5000 0xffffffff 0x00000000  # actual addr: 0x1400
read_reg 0x6000 0xffffffff 0x00000000  # actual addr: 0x1800
read_reg 0x4000 0xffffffff 0x00000000  # actual addr: 0x1000
read_reg 0x3000 0xffffffff 0x00000000  # actual addr: 0x0c00
write_reg 0x700c 0x00000000  # actual addr: 0x1c03
write_reg 0x7010 0x001f006f  # actual addr: 0x1c04
write_reg 0x7014 0x0000003f  # actual addr: 0x1c05
write_reg 0x7018 0x00000000  # actual addr: 0x1c06
write_reg 0x701c 0x00000000  # actual addr: 0x1c07
write_reg 0x7020 0x00000380  # actual addr: 0x1c08
write_reg 0x7024 0x00007000  # actual addr: 0x1c09
write_reg 0x7028 0x00000000  # actual addr: 0x1c0a
write_reg 0x702c 0x00000000  # actual addr: 0x1c0b
write_reg 0x500c 0x00000000  # actual addr: 0x1403
write_reg 0x600c 0x00000000  # actual addr: 0x1803
write_reg 0x400c 0x10000000  # actual addr: 0x1003
write_reg 0x4010 0x00000000  # actual addr: 0x1004
write_reg 0x4014 0x004100df  # actual addr: 0x1005
write_reg 0x4018 0x00000002  # actual addr: 0x1006
write_reg 0x401c 0x00000000  # actual addr: 0x1007
write_reg 0x4020 0x00000000  # actual addr: 0x1008
write_reg 0x4024 0x000000df  # actual addr: 0x1009
write_reg 0x4028 0x00000000  # actual addr: 0x100a
write_reg 0x402c 0x00060006  # actual addr: 0x100b
write_reg 0x4030 0x003f0002  # actual addr: 0x100c
write_reg 0x4034 0x000024c0  # actual addr: 0x100d
write_reg 0x4038 0x00000000  # actual addr: 0x100e
write_reg 0x403c 0x001f006f  # actual addr: 0x100f
write_reg 0x4040 0x0000003f  # actual addr: 0x1010
write_reg 0x4044 0x00000dff  # actual addr: 0x1011
write_reg 0x4048 0x00000041  # actual addr: 0x1012
write_reg 0x404c 0x00010001  # actual addr: 0x1013
write_reg 0x4050 0x00000000  # actual addr: 0x1014
write_reg 0x4054 0x00030003  # actual addr: 0x1015
write_reg 0x4058 0x00000000  # actual addr: 0x1016
write_reg 0x405c 0x0002001c  # actual addr: 0x1017
write_reg 0x4060 0x00000000  # actual addr: 0x1018
write_reg 0x3014 0x10000000  # actual addr: 0x0c05
write_reg 0x3018 0x00100000  # actual addr: 0x0c06
write_reg 0x301c 0x004100df  # actual addr: 0x0c07
write_reg 0x3020 0x00000002  # actual addr: 0x0c08
write_reg 0x3024 0x004100df  # actual addr: 0x0c09
write_reg 0x302c 0x00000001  # actual addr: 0x0c0b
write_reg 0x3030 0x00000000  # actual addr: 0x0c0c
write_reg 0x3034 0xc0080000  # actual addr: 0x0c0d
write_reg 0x3038 0x00000000  # actual addr: 0x0c0e
write_reg 0x303c 0xc0080000  # actual addr: 0x0c0f
write_reg 0x3040 0x00000700  # actual addr: 0x0c10
write_reg 0x3048 0x00062000  # actual addr: 0x0c12
write_reg 0x3044 0x00000000  # actual addr: 0x0c11
write_reg 0x304c 0x00000001  # actual addr: 0x0c13
write_reg 0x3058 0x00000000  # actual addr: 0x0c16
write_reg 0x305c 0x00000000  # actual addr: 0x0c17
write_reg 0x3060 0x000000df  # actual addr: 0x0c18
write_reg 0x3064 0x00000000  # actual addr: 0x0c19
write_reg 0x3068 0x00000000  # actual addr: 0x0c1a
write_reg 0x306c 0x00000092  # actual addr: 0x0c1b
write_reg 0x3070 0x0000003f  # actual addr: 0x0c1c
write_reg 0x3074 0x00000001  # actual addr: 0x0c1d
write_reg 0x3078 0x00000000  # actual addr: 0x0c1e
write_reg 0x307c 0xc4000000  # actual addr: 0x0c1f
write_reg 0x3080 0x000024c0  # actual addr: 0x0c20
write_reg 0x3098 0x00000000  # actual addr: 0x0c26
write_reg 0x30a4 0x00000001  # actual addr: 0x0c29
write_reg 0x30a8 0x00000000  # actual addr: 0x0c2a
write_reg 0x30ac 0x00000001  # actual addr: 0x0c2b
write_reg 0x30b0 0x00010001  # actual addr: 0x0c2c
write_reg 0x30b4 0x00030303  # actual addr: 0x0c2d
write_reg 0x30b8 0x00000000  # actual addr: 0x0c2e
write_reg 0x30bc 0x0002001c  # actual addr: 0x0c2f
read_reg 0x7004 0xffffffff 0x00000000  # actual addr: 0x1c01
write_reg 0x7004 0x00000001  # actual addr: 0x1c01
write_reg 0x5004 0x00000001  # actual addr: 0x1401
write_reg 0x6004 0x00000001  # actual addr: 0x1801
write_reg 0x4004 0x00000001  # actual addr: 0x1001
write_reg 0x3004 0x00000001  # actual addr: 0x0c01
read_reg 0x7000 0xffffffff 0x00000000  # actual addr: 0x1c00
read_reg 0x5000 0xffffffff 0x00000000  # actual addr: 0x1400
read_reg 0x6000 0xffffffff 0x00000000  # actual addr: 0x1800
read_reg 0x4000 0xffffffff 0x00000000  # actual addr: 0x1000
read_reg 0x3000 0xffffffff 0x00000000  # actual addr: 0x0c00
write_reg 0x700c 0x00000000  # actual addr: 0x1c03
write_reg 0x7010 0x001d006f  # actual addr: 0x1c04
write_reg 0x7014 0x0000003f  # actual addr: 0x1c05
write_reg 0x7018 0x00000000  # actual addr: 0x1c06
write_reg 0x701c 0x00000000  # actual addr: 0x1c07
write_reg 0x7020 0x00000380  # actual addr: 0x1c08
write_reg 0x7024 0x00006900  # actual addr: 0x1c09
write_reg 0x7028 0x00000000  # actual addr: 0x1c0a
write_reg 0x702c 0x00000000  # actual addr: 0x1c0b
write_reg 0x500c 0x00000000  # actual addr: 0x1403
write_reg 0x600c 0x00000000  # actual addr: 0x1803
write_reg 0x400c 0x10100000  # actual addr: 0x1003
write_reg 0x4010 0x00000000  # actual addr: 0x1004
write_reg 0x4014 0x004100df  # actual addr: 0x1005
write_reg 0x4018 0x00000002  # actual addr: 0x1006
write_reg 0x401c 0x00000000  # actual addr: 0x1007
write_reg 0x4020 0x00000000  # actual addr: 0x1008
write_reg 0x4024 0x000000df  # actual addr: 0x1009
write_reg 0x4028 0x00000000  # actual addr: 0x100a
write_reg 0x402c 0x00060006  # actual addr: 0x100b
write_reg 0x4030 0x003f0002  # actual addr: 0x100c
write_reg 0x4034 0x000024c0  # actual addr: 0x100d
write_reg 0x4038 0x00000000  # actual addr: 0x100e
write_reg 0x403c 0x001d006f  # actual addr: 0x100f
write_reg 0x4040 0x0000003f  # actual addr: 0x1010
write_reg 0x4044 0x00000d1f  # actual addr: 0x1011
write_reg 0x4048 0x00000041  # actual addr: 0x1012
write_reg 0x404c 0x00010001  # actual addr: 0x1013
write_reg 0x4050 0x00000000  # actual addr: 0x1014
write_reg 0x4054 0x00000003  # actual addr: 0x1015
write_reg 0x4058 0x00000000  # actual addr: 0x1016
write_reg 0x405c 0x0002001c  # actual addr: 0x1017
write_reg 0x4060 0x00000000  # actual addr: 0x1018
write_reg 0x3014 0x10100000  # actual addr: 0x0c05
write_reg 0x3018 0x00100000  # actual addr: 0x0c06
write_reg 0x301c 0x004100df  # actual addr: 0x0c07
write_reg 0x3020 0x00000002  # actual addr: 0x0c08
write_reg 0x3024 0x004100df  # actual addr: 0x0c09
write_reg 0x302c 0x00000001  # actual addr: 0x0c0b
write_reg 0x3030 0x00000000  # actual addr: 0x0c0c
write_reg 0x3034 0xc009ab00  # actual addr: 0x0c0d
write_reg 0x3038 0x00000000  # actual addr: 0x0c0e
write_reg 0x303c 0xc009ab00  # actual addr: 0x0c0f
write_reg 0x3040 0x00000700  # actual addr: 0x0c10
write_reg 0x3048 0x00062000  # actual addr: 0x0c12
write_reg 0x3044 0x00000000  # actual addr: 0x0c11
write_reg 0x304c 0x00000001  # actual addr: 0x0c13
write_reg 0x3058 0x00000000  # actual addr: 0x0c16
write_reg 0x305c 0x00000000  # actual addr: 0x0c17
write_reg 0x3060 0x000000df  # actual addr: 0x0c18
write_reg 0x3064 0x00000000  # actual addr: 0x0c19
write_reg 0x3068 0x00000000  # actual addr: 0x0c1a
write_reg 0x306c 0x00000092  # actual addr: 0x0c1b
write_reg 0x3070 0x0000003f  # actual addr: 0x0c1c
write_reg 0x3074 0x00000001  # actual addr: 0x0c1d
write_reg 0x3078 0x00000000  # actual addr: 0x0c1e
write_reg 0x307c 0xc4000000  # actual addr: 0x0c1f
write_reg 0x3080 0x000024c0  # actual addr: 0x0c20
write_reg 0x3098 0x00000000  # actual addr: 0x0c26
write_reg 0x30a4 0x00000000  # actual addr: 0x0c29
write_reg 0x30b0 0x00010001  # actual addr: 0x0c2c
write_reg 0x30b4 0x00000303  # actual addr: 0x0c2d
write_reg 0x30b8 0x00000000  # actual addr: 0x0c2e
write_reg 0x30bc 0x0002001c  # actual addr: 0x0c2f
read_reg 0x9004 0xffffffff 0x00000000  # actual addr: 0x2401
read_reg 0x8004 0xffffffff 0x00000000  # actual addr: 0x2001
write_reg 0x9004 0x00000000  # actual addr: 0x2401
write_reg 0x8004 0x00000000  # actual addr: 0x2001
read_reg 0x1004 0xffffffff 0x00000000  # actual addr: 0x0401
write_reg 0x1004 0x00000000  # actual addr: 0x0401
write_reg 0x8070 0x00000000  # actual addr: 0x201c
write_reg 0x8028 0x00000000  # actual addr: 0x200a
write_reg 0x8040 0x00000000  # actual addr: 0x2010
write_reg 0x8058 0x00000000  # actual addr: 0x2016
write_reg 0x8070 0x00000001  # actual addr: 0x201c
write_reg 0x800c 0x0000006f  # actual addr: 0x2003
write_reg 0x8010 0x0000001f  # actual addr: 0x2004
write_reg 0x8014 0x0000003f  # actual addr: 0x2005
write_reg 0x8028 0x0000002a  # actual addr: 0x200a
write_reg 0x802c 0xc4004000  # actual addr: 0x200b
write_reg 0x8030 0x00000000  # actual addr: 0x200c
write_reg 0x8034 0x00000010  # actual addr: 0x200d
write_reg 0x8038 0x00000010  # actual addr: 0x200e
write_reg 0x8040 0x00000031  # actual addr: 0x2010
write_reg 0x8058 0x00000031  # actual addr: 0x2016
write_reg 0x903c 0x0000006f  # actual addr: 0x240f
write_reg 0x9040 0x0000001f  # actual addr: 0x2410
write_reg 0x9044 0x0000003f  # actual addr: 0x2411
write_reg 0x904c 0x00000000  # actual addr: 0x2413
write_reg 0x9048 0xc1000000  # actual addr: 0x2412
write_reg 0x9050 0x00000380  # actual addr: 0x2414
write_reg 0x9054 0x00018800  # actual addr: 0x2415
write_reg 0x9058 0x00000018  # actual addr: 0x2416
write_reg 0x905c 0x00000001  # actual addr: 0x2417
write_reg 0x9064 0x00000001  # actual addr: 0x2419
write_reg 0x906c 0x00000053  # actual addr: 0x241b
write_reg 0x9080 0x00000053  # actual addr: 0x2420
write_reg 0x90b0 0x00000001  # actual addr: 0x242c
write_reg 0x90b4 0x00000001  # actual addr: 0x242d
write_reg 0x90bc 0x00000000  # actual addr: 0x242f
write_reg 0x90c0 0x00000000  # actual addr: 0x2430
write_reg 0x90c4 0x00004fdc  # actual addr: 0x2431
write_reg 0x90c8 0x00000017  # actual addr: 0x2432
write_reg 0x9004 0x00000000  # actual addr: 0x2401
write_reg 0x8004 0x00000000  # actual addr: 0x2001
write_reg 0x8008 0x00000001  # actual addr: 0x2002
write_reg 0x9038 0x00000001  # actual addr: 0x240e
write_reg 0x7004 0x00000000  # actual addr: 0x1c01
write_reg 0x5004 0x00000000  # actual addr: 0x1401
write_reg 0x6004 0x00000000  # actual addr: 0x1801
write_reg 0x4004 0x00000000  # actual addr: 0x1001
write_reg 0x3004 0x00000000  # actual addr: 0x0c01
read_reg 0x300c 0xffffffff 0x00000001  # actual addr: 0x0c03
write_reg 0x7008 0x00000001  # actual addr: 0x1c02
write_reg 0x5008 0x00000001  # actual addr: 0x1402
write_reg 0x6008 0x00000001  # actual addr: 0x1802
write_reg 0x4008 0x00000001  # actual addr: 0x1002
write_reg 0x3010 0x00000001  # actual addr: 0x0c04
read_reg 0x9004 0xffffffff 0x00000000  # actual addr: 0x2401
read_reg 0x8004 0xffffffff 0x00000000  # actual addr: 0x2001
write_reg 0x9004 0x00000001  # actual addr: 0x2401
write_reg 0x8004 0x00000001  # actual addr: 0x2001
read_reg 0x1004 0xffffffff 0x00000000  # actual addr: 0x0401
write_reg 0x1004 0x00000000  # actual addr: 0x0401
write_reg 0x8070 0x00000000  # actual addr: 0x201c
write_reg 0x8028 0x00000000  # actual addr: 0x200a
write_reg 0x8040 0x00000000  # actual addr: 0x2010
write_reg 0x8058 0x00000000  # actual addr: 0x2016
write_reg 0x8070 0x00000001  # actual addr: 0x201c
write_reg 0x800c 0x0000006f  # actual addr: 0x2003
write_reg 0x8010 0x0000001d  # actual addr: 0x2004
write_reg 0x8014 0x0000003f  # actual addr: 0x2005
write_reg 0x8028 0x0000002a  # actual addr: 0x200a
write_reg 0x802c 0xc4004000  # actual addr: 0x200b
write_reg 0x8030 0x00000000  # actual addr: 0x200c
write_reg 0x8034 0x00000010  # actual addr: 0x200d
write_reg 0x8038 0x00000010  # actual addr: 0x200e
write_reg 0x8040 0x00000031  # actual addr: 0x2010
write_reg 0x8058 0x00000031  # actual addr: 0x2016
write_reg 0x903c 0x0000006f  # actual addr: 0x240f
write_reg 0x9040 0x0000001d  # actual addr: 0x2410
write_reg 0x9044 0x0000003f  # actual addr: 0x2411
write_reg 0x904c 0x00000000  # actual addr: 0x2413
write_reg 0x9048 0xc1007000  # actual addr: 0x2412
write_reg 0x9050 0x00000380  # actual addr: 0x2414
write_reg 0x9054 0x00018800  # actual addr: 0x2415
write_reg 0x9058 0x00000018  # actual addr: 0x2416
write_reg 0x905c 0x00000001  # actual addr: 0x2417
write_reg 0x9064 0x00000001  # actual addr: 0x2419
write_reg 0x906c 0x00000053  # actual addr: 0x241b
write_reg 0x9080 0x00000053  # actual addr: 0x2420
write_reg 0x90b0 0x00000001  # actual addr: 0x242c
write_reg 0x90b4 0x00000001  # actual addr: 0x242d
write_reg 0x90bc 0x00000000  # actual addr: 0x242f
write_reg 0x90c0 0x00000000  # actual addr: 0x2430
write_reg 0x90c4 0x00004fdc  # actual addr: 0x2431
write_reg 0x90c8 0x00000017  # actual addr: 0x2432
write_reg 0x9004 0x00000001  # actual addr: 0x2401
write_reg 0x8004 0x00000001  # actual addr: 0x2001
write_reg 0x8008 0x00000001  # actual addr: 0x2002
write_reg 0x9038 0x00000001  # actual addr: 0x240e
write_reg 0x7004 0x00000001  # actual addr: 0x1c01
write_reg 0x5004 0x00000001  # actual addr: 0x1401
write_reg 0x6004 0x00000001  # actual addr: 0x1801
write_reg 0x4004 0x00000001  # actual addr: 0x1001
write_reg 0x3004 0x00000001  # actual addr: 0x0c01
read_reg 0x300c 0xffffffff 0x00000001  # actual addr: 0x0c03
write_reg 0x7008 0x00000001  # actual addr: 0x1c02
write_reg 0x5008 0x00000001  # actual addr: 0x1402
write_reg 0x6008 0x00000001  # actual addr: 0x1802
write_reg 0x4008 0x00000001  # actual addr: 0x1002
write_reg 0x3010 0x00000001  # actual addr: 0x0c04
read_reg 0xb004 0xffffffff 0x00000000  # actual addr: 0x2c01
read_reg 0xa004 0xffffffff 0x00000000  # actual addr: 0x2801
write_reg 0xb004 0x00000000  # actual addr: 0x2c01
write_reg 0xa004 0x00000000  # actual addr: 0x2801
read_reg 0x1004 0xffffffff 0x00000000  # actual addr: 0x0401
write_reg 0x1004 0x00000000  # actual addr: 0x0401
write_reg 0xa00c 0x0000006f  # actual addr: 0x2803
write_reg 0xa010 0x0000006f  # actual addr: 0x2804
write_reg 0xa014 0x0000003f  # actual addr: 0x2805
write_reg 0xa020 0x00000000  # actual addr: 0x2808
write_reg 0xa01c 0xc1000000  # actual addr: 0x2807
write_reg 0xa024 0x00000380  # actual addr: 0x2809
write_reg 0xa028 0x00018800  # actual addr: 0x280a
write_reg 0xa030 0x00000000  # actual addr: 0x280c
write_reg 0xa02c 0x00000001  # actual addr: 0x280b
write_reg 0xa034 0x00000000  # actual addr: 0x280d
write_reg 0xa038 0x00000012  # actual addr: 0x280e
write_reg 0xa03c 0x00000000  # actual addr: 0x280f
write_reg 0xa040 0x00000000  # actual addr: 0x2810
write_reg 0xb00c 0x0000006f  # actual addr: 0x2c03
write_reg 0xb010 0x0000006f  # actual addr: 0x2c04
write_reg 0xb014 0x0000003f  # actual addr: 0x2c05
write_reg 0xb018 0x00000037  # actual addr: 0x2c06
write_reg 0xb01c 0x00000037  # actual addr: 0x2c07
write_reg 0xb020 0x0000003f  # actual addr: 0x2c08
write_reg 0xb024 0x00000011  # actual addr: 0x2c09
write_reg 0xb02c 0x00000000  # actual addr: 0x2c0b
write_reg 0xb030 0x00000000  # actual addr: 0x2c0c
write_reg 0xb034 0x00110202  # actual addr: 0x2c0d
write_reg 0xb038 0x00005555  # actual addr: 0x2c0e
write_reg 0xb03c 0x00005555  # actual addr: 0x2c0f
write_reg 0xb040 0x00001100  # actual addr: 0x2c10
write_reg 0xb044 0x00000000  # actual addr: 0x2c11
write_reg 0xb048 0x00000000  # actual addr: 0x2c12
write_reg 0xb04c 0x00000000  # actual addr: 0x2c13
write_reg 0xb050 0x00000000  # actual addr: 0x2c14
write_reg 0xb054 0x00000000  # actual addr: 0x2c15
write_reg 0xb058 0x00000000  # actual addr: 0x2c16
write_reg 0xb05c 0x00000000  # actual addr: 0x2c17
write_reg 0xb068 0x00000380  # actual addr: 0x2c1a
write_reg 0xb06c 0x00018800  # actual addr: 0x2c1b
write_reg 0xb070 0xc1100000  # actual addr: 0x2c1c
write_reg 0xb074 0x00000000  # actual addr: 0x2c1d
write_reg 0xb078 0x000001c0  # actual addr: 0x2c1e
write_reg 0xb07c 0x00006200  # actual addr: 0x2c1f
write_reg 0xb080 0x00000001  # actual addr: 0x2c20
write_reg 0xb084 0x00000000  # actual addr: 0x2c21
read_reg 0xb004 0xffffffff 0x00000000  # actual addr: 0x2c01
read_reg 0xa004 0xffffffff 0x00000000  # actual addr: 0x2801
write_reg 0xb004 0x00000001  # actual addr: 0x2c01
write_reg 0xa004 0x00000001  # actual addr: 0x2801
read_reg 0x1004 0xffffffff 0x00000000  # actual addr: 0x0401
write_reg 0x1004 0x00000000  # actual addr: 0x0401
write_reg 0xa00c 0x00000006  # actual addr: 0x2803
write_reg 0xa010 0x00000006  # actual addr: 0x2804
write_reg 0xa014 0x000007ff  # actual addr: 0x2805
write_reg 0xa020 0x00000000  # actual addr: 0x2808
write_reg 0xa01c 0xc1a80000  # actual addr: 0x2807
write_reg 0xa024 0x00000038  # actual addr: 0x2809
write_reg 0xa028 0x00000188  # actual addr: 0x280a
write_reg 0xa030 0x00000000  # actual addr: 0x280c
write_reg 0xa02c 0x00000001  # actual addr: 0x280b
write_reg 0xa034 0x00000000  # actual addr: 0x280d
write_reg 0xa038 0x00000006  # actual addr: 0x280e
write_reg 0xa03c 0x00000000  # actual addr: 0x280f
write_reg 0xa040 0x00000000  # actual addr: 0x2810
write_reg 0xb00c 0x00000006  # actual addr: 0x2c03
write_reg 0xb010 0x00000006  # actual addr: 0x2c04
write_reg 0xb014 0x000007ff  # actual addr: 0x2c05
write_reg 0xb018 0x00000000  # actual addr: 0x2c06
write_reg 0xb01c 0x00000000  # actual addr: 0x2c07
write_reg 0xb020 0x000007ff  # actual addr: 0x2c08
write_reg 0xb024 0x00000010  # actual addr: 0x2c09
write_reg 0xb02c 0x00000000  # actual addr: 0x2c0b
write_reg 0xb030 0x00000000  # actual addr: 0x2c0c
write_reg 0xb034 0x00000606  # actual addr: 0x2c0d
write_reg 0xb038 0x00002492  # actual addr: 0x2c0e
write_reg 0xb03c 0x00002492  # actual addr: 0x2c0f
write_reg 0xb040 0x00000000  # actual addr: 0x2c10
write_reg 0xb044 0x00000000  # actual addr: 0x2c11
write_reg 0xb048 0x00000000  # actual addr: 0x2c12
write_reg 0xb04c 0x00000000  # actual addr: 0x2c13
write_reg 0xb050 0x00000000  # actual addr: 0x2c14
write_reg 0xb054 0x00000000  # actual addr: 0x2c15
write_reg 0xb058 0x00000000  # actual addr: 0x2c16
write_reg 0xb05c 0x00000000  # actual addr: 0x2c17
write_reg 0xb068 0x00000038  # actual addr: 0x2c1a
write_reg 0xb06c 0x00000188  # actual addr: 0x2c1b
write_reg 0xb070 0xc1a48000  # actual addr: 0x2c1c
write_reg 0xb074 0x00000000  # actual addr: 0x2c1d
write_reg 0xb078 0x00000008  # actual addr: 0x2c1e
write_reg 0xb07c 0x00000008  # actual addr: 0x2c1f
write_reg 0xb080 0x00000001  # actual addr: 0x2c20
write_reg 0xb084 0x00000000  # actual addr: 0x2c21
read_reg 0x1004 0xffffffff 0x00000000  # actual addr: 0x0401
read_reg 0x100c 0xffffffff 0x003f0003  # actual addr: 0x0403
write_reg 0x100c 0x003f0003  # actual addr: 0x0403
read_reg 0x1004 0xffffffff 0x00000000  # actual addr: 0x0401
read_reg 0x100c 0xffffffff 0x00000000  # actual addr: 0x0403
read_reg 0x7004 0xffffffff 0x00000001  # actual addr: 0x1c01
write_reg 0x7004 0x00000000  # actual addr: 0x1c01
write_reg 0x5004 0x00000000  # actual addr: 0x1401
write_reg 0x6004 0x00000000  # actual addr: 0x1801
write_reg 0x4004 0x00000000  # actual addr: 0x1001
write_reg 0x3004 0x00000000  # actual addr: 0x0c01
read_reg 0x7000 0xffffffff 0x00000000  # actual addr: 0x1c00
read_reg 0x5000 0xffffffff 0x00000000  # actual addr: 0x1400
read_reg 0x6000 0xffffffff 0x00000000  # actual addr: 0x1800
read_reg 0x4000 0xffffffff 0x00000000  # actual addr: 0x1000
read_reg 0x3000 0xffffffff 0x00000000  # actual addr: 0x0c00
write_reg 0x700c 0x00000000  # actual addr: 0x1c03
write_reg 0x7010 0x001d006f  # actual addr: 0x1c04
write_reg 0x7014 0x0000003f  # actual addr: 0x1c05
write_reg 0x7018 0x00000000  # actual addr: 0x1c06
write_reg 0x701c 0x00000000  # actual addr: 0x1c07
write_reg 0x7020 0x00000380  # actual addr: 0x1c08
write_reg 0x7024 0x00006900  # actual addr: 0x1c09
write_reg 0x7028 0x00000000  # actual addr: 0x1c0a
write_reg 0x702c 0x00000000  # actual addr: 0x1c0b
write_reg 0x500c 0x00000000  # actual addr: 0x1403
write_reg 0x600c 0x00000000  # actual addr: 0x1803
write_reg 0x400c 0x10100000  # actual addr: 0x1003
write_reg 0x4010 0x00000000  # actual addr: 0x1004
write_reg 0x4014 0x004100df  # actual addr: 0x1005
write_reg 0x4018 0x00000002  # actual addr: 0x1006
write_reg 0x401c 0x00000000  # actual addr: 0x1007
write_reg 0x4020 0x00000000  # actual addr: 0x1008
write_reg 0x4024 0x000000df  # actual addr: 0x1009
write_reg 0x4028 0x00000000  # actual addr: 0x100a
write_reg 0x402c 0x00060006  # actual addr: 0x100b
write_reg 0x4030 0x003f0002  # actual addr: 0x100c
write_reg 0x4034 0x000024c0  # actual addr: 0x100d
write_reg 0x4038 0x00000000  # actual addr: 0x100e
write_reg 0x403c 0x001d006f  # actual addr: 0x100f
write_reg 0x4040 0x0000003f  # actual addr: 0x1010
write_reg 0x4044 0x00000d1f  # actual addr: 0x1011
write_reg 0x4048 0x00000041  # actual addr: 0x1012
write_reg 0x404c 0x00010001  # actual addr: 0x1013
write_reg 0x4050 0x00000000  # actual addr: 0x1014
write_reg 0x4054 0x00000003  # actual addr: 0x1015
write_reg 0x4058 0x00000000  # actual addr: 0x1016
write_reg 0x405c 0x0002001c  # actual addr: 0x1017
write_reg 0x4060 0x00000000  # actual addr: 0x1018
write_reg 0x3014 0x10100000  # actual addr: 0x0c05
write_reg 0x3018 0x00100000  # actual addr: 0x0c06
write_reg 0x301c 0x004100df  # actual addr: 0x0c07
write_reg 0x3020 0x00000002  # actual addr: 0x0c08
write_reg 0x3024 0x004100df  # actual addr: 0x0c09
write_reg 0x302c 0x00000001  # actual addr: 0x0c0b
write_reg 0x3030 0x00000000  # actual addr: 0x0c0c
write_reg 0x3034 0xc00b4f00  # actual addr: 0x0c0d
write_reg 0x3038 0x00000000  # actual addr: 0x0c0e
write_reg 0x303c 0xc00b4f00  # actual addr: 0x0c0f
write_reg 0x3040 0x00000700  # actual addr: 0x0c10
write_reg 0x3048 0x00062000  # actual addr: 0x0c12
write_reg 0x3044 0x00000000  # actual addr: 0x0c11
write_reg 0x304c 0x00000001  # actual addr: 0x0c13
write_reg 0x3058 0x00000000  # actual addr: 0x0c16
write_reg 0x305c 0x00000000  # actual addr: 0x0c17
write_reg 0x3060 0x000000df  # actual addr: 0x0c18
write_reg 0x3064 0x00000000  # actual addr: 0x0c19
write_reg 0x3068 0x00000000  # actual addr: 0x0c1a
write_reg 0x306c 0x00000092  # actual addr: 0x0c1b
write_reg 0x3070 0x0000003f  # actual addr: 0x0c1c
write_reg 0x3074 0x00000001  # actual addr: 0x0c1d
write_reg 0x3078 0x00000000  # actual addr: 0x0c1e
write_reg 0x307c 0xc4000000  # actual addr: 0x0c1f
write_reg 0x3080 0x000024c0  # actual addr: 0x0c20
write_reg 0x3098 0x00000000  # actual addr: 0x0c26
write_reg 0x30a4 0x00000000  # actual addr: 0x0c29
write_reg 0x30b0 0x00010001  # actual addr: 0x0c2c
write_reg 0x30b4 0x00000303  # actual addr: 0x0c2d
write_reg 0x30b8 0x00000000  # actual addr: 0x0c2e
write_reg 0x30bc 0x0002001c  # actual addr: 0x0c2f
read_reg 0x7004 0xffffffff 0x00000000  # actual addr: 0x1c01
write_reg 0x7004 0x00000001  # actual addr: 0x1c01
write_reg 0x5004 0x00000001  # actual addr: 0x1401
write_reg 0x6004 0x00000001  # actual addr: 0x1801
write_reg 0x4004 0x00000001  # actual addr: 0x1001
write_reg 0x3004 0x00000001  # actual addr: 0x0c01
read_reg 0x7000 0xffffffff 0x00000000  # actual addr: 0x1c00
read_reg 0x5000 0xffffffff 0x00000000  # actual addr: 0x1400
read_reg 0x6000 0xffffffff 0x00000000  # actual addr: 0x1800
read_reg 0x4000 0xffffffff 0x00000000  # actual addr: 0x1000
read_reg 0x3000 0xffffffff 0x00000000  # actual addr: 0x0c00
write_reg 0x700c 0x00000000  # actual addr: 0x1c03
write_reg 0x7010 0x0013006f  # actual addr: 0x1c04
write_reg 0x7014 0x0000003f  # actual addr: 0x1c05
write_reg 0x7018 0x00000000  # actual addr: 0x1c06
write_reg 0x701c 0x00000000  # actual addr: 0x1c07
write_reg 0x7020 0x00000380  # actual addr: 0x1c08
write_reg 0x7024 0x00004600  # actual addr: 0x1c09
write_reg 0x7028 0x00000000  # actual addr: 0x1c0a
write_reg 0x702c 0x00000000  # actual addr: 0x1c0b
write_reg 0x500c 0x00000000  # actual addr: 0x1403
write_reg 0x600c 0x00000000  # actual addr: 0x1803
write_reg 0x400c 0x00100000  # actual addr: 0x1003
write_reg 0x4010 0x00000000  # actual addr: 0x1004
write_reg 0x4014 0x002a00df  # actual addr: 0x1005
write_reg 0x4018 0x00000002  # actual addr: 0x1006
write_reg 0x401c 0x00000000  # actual addr: 0x1007
write_reg 0x4020 0x00000000  # actual addr: 0x1008
write_reg 0x4024 0x000000df  # actual addr: 0x1009
write_reg 0x4028 0x00000000  # actual addr: 0x100a
write_reg 0x402c 0x00060006  # actual addr: 0x100b
write_reg 0x4030 0x003f0002  # actual addr: 0x100c
write_reg 0x4034 0x000024c0  # actual addr: 0x100d
write_reg 0x4038 0x00000000  # actual addr: 0x100e
write_reg 0x403c 0x0013006f  # actual addr: 0x100f
write_reg 0x4040 0x0000003f  # actual addr: 0x1010
write_reg 0x4044 0x000008bf  # actual addr: 0x1011
write_reg 0x4048 0x0000002a  # actual addr: 0x1012
write_reg 0x404c 0x00010001  # actual addr: 0x1013
write_reg 0x4050 0x00000000  # actual addr: 0x1014
write_reg 0x4054 0x00000003  # actual addr: 0x1015
write_reg 0x4058 0x00000000  # actual addr: 0x1016
write_reg 0x405c 0x0002001c  # actual addr: 0x1017
write_reg 0x4060 0x00000000  # actual addr: 0x1018
write_reg 0x3014 0x00100000  # actual addr: 0x0c05
write_reg 0x3018 0x00100000  # actual addr: 0x0c06
write_reg 0x301c 0x002a00df  # actual addr: 0x0c07
write_reg 0x3020 0x00000002  # actual addr: 0x0c08
write_reg 0x3024 0x002a00df  # actual addr: 0x0c09
write_reg 0x302c 0x00000001  # actual addr: 0x0c0b
write_reg 0x3030 0x00000000  # actual addr: 0x0c0c
write_reg 0x3034 0xc00cf300  # actual addr: 0x0c0d
write_reg 0x3038 0x00000000  # actual addr: 0x0c0e
write_reg 0x303c 0xc00cf300  # actual addr: 0x0c0f
write_reg 0x3040 0x00000700  # actual addr: 0x0c10
write_reg 0x3048 0x00062000  # actual addr: 0x0c12
write_reg 0x3044 0x00000000  # actual addr: 0x0c11
write_reg 0x304c 0x00000001  # actual addr: 0x0c13
write_reg 0x3058 0x00000000  # actual addr: 0x0c16
write_reg 0x305c 0x00000000  # actual addr: 0x0c17
write_reg 0x3060 0x000000df  # actual addr: 0x0c18
write_reg 0x3064 0x00000000  # actual addr: 0x0c19
write_reg 0x3068 0x00000000  # actual addr: 0x0c1a
write_reg 0x306c 0x00000092  # actual addr: 0x0c1b
write_reg 0x3070 0x0000003f  # actual addr: 0x0c1c
write_reg 0x3074 0x00000001  # actual addr: 0x0c1d
write_reg 0x3078 0x00000000  # actual addr: 0x0c1e
write_reg 0x307c 0xc4000000  # actual addr: 0x0c1f
write_reg 0x3080 0x000024c0  # actual addr: 0x0c20
write_reg 0x3098 0x00000000  # actual addr: 0x0c26
write_reg 0x30a4 0x00000000  # actual addr: 0x0c29
write_reg 0x30b0 0x00010001  # actual addr: 0x0c2c
write_reg 0x30b4 0x03000303  # actual addr: 0x0c2d
write_reg 0x30b8 0x00000000  # actual addr: 0x0c2e
write_reg 0x30bc 0x0002001c  # actual addr: 0x0c2f
read_reg 0x9004 0xffffffff 0x00000001  # actual addr: 0x2401
read_reg 0x8004 0xffffffff 0x00000001  # actual addr: 0x2001
write_reg 0x9004 0x00000000  # actual addr: 0x2401
write_reg 0x8004 0x00000000  # actual addr: 0x2001
read_reg 0x1004 0xffffffff 0x00000000  # actual addr: 0x0401
write_reg 0x1004 0x00000000  # actual addr: 0x0401
write_reg 0x8070 0x00000000  # actual addr: 0x201c
write_reg 0x8028 0x00000000  # actual addr: 0x200a
write_reg 0x8040 0x00000000  # actual addr: 0x2010
write_reg 0x8058 0x00000000  # actual addr: 0x2016
write_reg 0x8070 0x00000001  # actual addr: 0x201c
write_reg 0x800c 0x0000006f  # actual addr: 0x2003
write_reg 0x8010 0x0000001d  # actual addr: 0x2004
write_reg 0x8014 0x0000003f  # actual addr: 0x2005
write_reg 0x8028 0x0000002a  # actual addr: 0x200a
write_reg 0x802c 0xc4004000  # actual addr: 0x200b
write_reg 0x8030 0x00000000  # actual addr: 0x200c
write_reg 0x8034 0x00000010  # actual addr: 0x200d
write_reg 0x8038 0x00000010  # actual addr: 0x200e
write_reg 0x8040 0x00000031  # actual addr: 0x2010
write_reg 0x8058 0x00000031  # actual addr: 0x2016
write_reg 0x903c 0x0000006f  # actual addr: 0x240f
write_reg 0x9040 0x0000001d  # actual addr: 0x2410
write_reg 0x9044 0x0000003f  # actual addr: 0x2411
write_reg 0x904c 0x00000000  # actual addr: 0x2413
write_reg 0x9048 0xc100d900  # actual addr: 0x2412
write_reg 0x9050 0x00000380  # actual addr: 0x2414
write_reg 0x9054 0x00018800  # actual addr: 0x2415
write_reg 0x9058 0x00000018  # actual addr: 0x2416
write_reg 0x905c 0x00000001  # actual addr: 0x2417
write_reg 0x9064 0x00000001  # actual addr: 0x2419
write_reg 0x906c 0x00000053  # actual addr: 0x241b
write_reg 0x9080 0x00000053  # actual addr: 0x2420
write_reg 0x90b0 0x00000001  # actual addr: 0x242c
write_reg 0x90b4 0x00000001  # actual addr: 0x242d
write_reg 0x90bc 0x00000000  # actual addr: 0x242f
write_reg 0x90c0 0x00000000  # actual addr: 0x2430
write_reg 0x90c4 0x00004fdc  # actual addr: 0x2431
write_reg 0x90c8 0x00000017  # actual addr: 0x2432
write_reg 0x9004 0x00000000  # actual addr: 0x2401
write_reg 0x8004 0x00000000  # actual addr: 0x2001
write_reg 0x8008 0x00000001  # actual addr: 0x2002
write_reg 0x9038 0x00000001  # actual addr: 0x240e
write_reg 0x7004 0x00000000  # actual addr: 0x1c01
write_reg 0x5004 0x00000000  # actual addr: 0x1401
write_reg 0x6004 0x00000000  # actual addr: 0x1801
write_reg 0x4004 0x00000000  # actual addr: 0x1001
write_reg 0x3004 0x00000000  # actual addr: 0x0c01
read_reg 0x300c 0xffffffff 0x00000001  # actual addr: 0x0c03
write_reg 0x7008 0x00000001  # actual addr: 0x1c02
write_reg 0x5008 0x00000001  # actual addr: 0x1402
write_reg 0x6008 0x00000001  # actual addr: 0x1802
write_reg 0x4008 0x00000001  # actual addr: 0x1002
write_reg 0x3010 0x00000001  # actual addr: 0x0c04
read_reg 0x9004 0xffffffff 0x00000000  # actual addr: 0x2401
read_reg 0x8004 0xffffffff 0x00000000  # actual addr: 0x2001
write_reg 0x9004 0x00000001  # actual addr: 0x2401
write_reg 0x8004 0x00000001  # actual addr: 0x2001
read_reg 0x1004 0xffffffff 0x00000000  # actual addr: 0x0401
write_reg 0x1004 0x00000000  # actual addr: 0x0401
write_reg 0x8070 0x00000000  # actual addr: 0x201c
write_reg 0x8028 0x00000000  # actual addr: 0x200a
write_reg 0x8040 0x00000000  # actual addr: 0x2010
write_reg 0x8058 0x00000000  # actual addr: 0x2016
write_reg 0x8070 0x00000001  # actual addr: 0x201c
write_reg 0x800c 0x0000006f  # actual addr: 0x2003
write_reg 0x8010 0x00000013  # actual addr: 0x2004
write_reg 0x8014 0x0000003f  # actual addr: 0x2005
write_reg 0x8028 0x0000002a  # actual addr: 0x200a
write_reg 0x802c 0xc4004000  # actual addr: 0x200b
write_reg 0x8030 0x00000000  # actual addr: 0x200c
write_reg 0x8034 0x00000010  # actual addr: 0x200d
write_reg 0x8038 0x00000010  # actual addr: 0x200e
write_reg 0x8040 0x00000031  # actual addr: 0x2010
write_reg 0x8058 0x00000031  # actual addr: 0x2016
write_reg 0x903c 0x0000006f  # actual addr: 0x240f
write_reg 0x9040 0x00000013  # actual addr: 0x2410
write_reg 0x9044 0x0000003f  # actual addr: 0x2411
write_reg 0x904c 0x00000000  # actual addr: 0x2413
write_reg 0x9048 0xc1014200  # actual addr: 0x2412
write_reg 0x9050 0x00000380  # actual addr: 0x2414
write_reg 0x9054 0x00018800  # actual addr: 0x2415
write_reg 0x9058 0x00000018  # actual addr: 0x2416
write_reg 0x905c 0x00000001  # actual addr: 0x2417
write_reg 0x9064 0x00000001  # actual addr: 0x2419
write_reg 0x906c 0x00000053  # actual addr: 0x241b
write_reg 0x9080 0x00000053  # actual addr: 0x2420
write_reg 0x90b0 0x00000001  # actual addr: 0x242c
write_reg 0x90b4 0x00000001  # actual addr: 0x242d
write_reg 0x90bc 0x00000000  # actual addr: 0x242f
write_reg 0x90c0 0x00000000  # actual addr: 0x2430
write_reg 0x90c4 0x00004fdc  # actual addr: 0x2431
write_reg 0x90c8 0x00000017  # actual addr: 0x2432
write_reg 0x9004 0x00000001  # actual addr: 0x2401
write_reg 0x8004 0x00000001  # actual addr: 0x2001
write_reg 0x8008 0x00000001  # actual addr: 0x2002
write_reg 0x9038 0x00000001  # actual addr: 0x240e
write_reg 0x7004 0x00000001  # actual addr: 0x1c01
write_reg 0x5004 0x00000001  # actual addr: 0x1401
write_reg 0x6004 0x00000001  # actual addr: 0x1801
write_reg 0x4004 0x00000001  # actual addr: 0x1001
write_reg 0x3004 0x00000001  # actual addr: 0x0c01
read_reg 0x300c 0xffffffff 0x00000001  # actual addr: 0x0c03
write_reg 0x7008 0x00000001  # actual addr: 0x1c02
write_reg 0x5008 0x00000001  # actual addr: 0x1402
write_reg 0x6008 0x00000001  # actual addr: 0x1802
write_reg 0x4008 0x00000001  # actual addr: 0x1002
write_reg 0x3010 0x00000001  # actual addr: 0x0c04
read_reg 0x1004 0xffffffff 0x00000000  # actual addr: 0x0401
read_reg 0x100c 0xffffffff 0x00040000  # actual addr: 0x0403
write_reg 0x100c 0x00040000  # actual addr: 0x0403
read_reg 0x1004 0xffffffff 0x00000000  # actual addr: 0x0401
read_reg 0x100c 0xffffffff 0x00000000  # actual addr: 0x0403
read_reg 0x1004 0xffffffff 0x00000000  # actual addr: 0x0401
read_reg 0x100c 0xffffffff 0x003b0003  # actual addr: 0x0403
write_reg 0x100c 0x003b0003  # actual addr: 0x0403
read_reg 0x1004 0xffffffff 0x00000000  # actual addr: 0x0401
read_reg 0x100c 0xffffffff 0x00000000  # actual addr: 0x0403
read_reg 0x7004 0xffffffff 0x00000001  # actual addr: 0x1c01
write_reg 0x7004 0x00000000  # actual addr: 0x1c01
write_reg 0x5004 0x00000000  # actual addr: 0x1401
write_reg 0x6004 0x00000000  # actual addr: 0x1801
write_reg 0x4004 0x00000000  # actual addr: 0x1001
write_reg 0x3004 0x00000000  # actual addr: 0x0c01
read_reg 0x7000 0xffffffff 0x00000000  # actual addr: 0x1c00
read_reg 0x5000 0xffffffff 0x00000000  # actual addr: 0x1400
read_reg 0x6000 0xffffffff 0x00000000  # actual addr: 0x1800
read_reg 0x4000 0xffffffff 0x00000000  # actual addr: 0x1000
read_reg 0x3000 0xffffffff 0x00000000  # actual addr: 0x0c00
write_reg 0x700c 0x00000000  # actual addr: 0x1c03
write_reg 0x7010 0x001f0037  # actual addr: 0x1c04
write_reg 0x7014 0x000000ff  # actual addr: 0x1c05
write_reg 0x7018 0x00000000  # actual addr: 0x1c06
write_reg 0x701c 0x00000000  # actual addr: 0x1c07
write_reg 0x7020 0x000001c0  # actual addr: 0x1c08
write_reg 0x7024 0x00003800  # actual addr: 0x1c09
write_reg 0x7028 0x00000000  # actual addr: 0x1c0a
write_reg 0x702c 0x00000000  # actual addr: 0x1c0b
write_reg 0x500c 0x00000000  # actual addr: 0x1403
write_reg 0x600c 0x00000000  # actual addr: 0x1803
write_reg 0x400c 0x10000000  # actual addr: 0x1003
write_reg 0x4010 0x00000000  # actual addr: 0x1004
write_reg 0x4014 0x001f0037  # actual addr: 0x1005
write_reg 0x4018 0x0000003f  # actual addr: 0x1006
write_reg 0x401c 0x00000000  # actual addr: 0x1007
write_reg 0x4020 0x00000000  # actual addr: 0x1008
write_reg 0x4024 0x000001bf  # actual addr: 0x1009
write_reg 0x4028 0x00000000  # actual addr: 0x100a
write_reg 0x402c 0x00000000  # actual addr: 0x100b
write_reg 0x4030 0x00ff003f  # actual addr: 0x100c
write_reg 0x4034 0x00004000  # actual addr: 0x100d
write_reg 0x4038 0x00000000  # actual addr: 0x100e
write_reg 0x403c 0x001f0037  # actual addr: 0x100f
write_reg 0x4040 0x000000ff  # actual addr: 0x1010
write_reg 0x4044 0x000006ff  # actual addr: 0x1011
write_reg 0x4048 0x0000001f  # actual addr: 0x1012
write_reg 0x404c 0x00000000  # actual addr: 0x1013
write_reg 0x4050 0x00000000  # actual addr: 0x1014
write_reg 0x4054 0x00000000  # actual addr: 0x1015
write_reg 0x4058 0x00000000  # actual addr: 0x1016
write_reg 0x405c 0x0003001b  # actual addr: 0x1017
write_reg 0x4060 0x00000000  # actual addr: 0x1018
write_reg 0x3014 0x10000000  # actual addr: 0x0c05
write_reg 0x3018 0x00100000  # actual addr: 0x0c06
write_reg 0x301c 0x001f0037  # actual addr: 0x0c07
write_reg 0x3020 0x0000003f  # actual addr: 0x0c08
write_reg 0x3024 0x001f0037  # actual addr: 0x0c09
write_reg 0x302c 0x00000001  # actual addr: 0x0c0b
write_reg 0x3030 0x00000000  # actual addr: 0x0c0c
write_reg 0x3034 0xc1100000  # actual addr: 0x0c0d
write_reg 0x3038 0x00000000  # actual addr: 0x0c0e
write_reg 0x303c 0xc1100000  # actual addr: 0x0c0f
write_reg 0x3040 0x000001c0  # actual addr: 0x0c10
write_reg 0x3048 0x00006200  # actual addr: 0x0c12
write_reg 0x3044 0x00000000  # actual addr: 0x0c11
write_reg 0x304c 0x00000001  # actual addr: 0x0c13
write_reg 0x3058 0x00000000  # actual addr: 0x0c16
write_reg 0x305c 0x00000000  # actual addr: 0x0c17
write_reg 0x3060 0x000001bf  # actual addr: 0x0c18
write_reg 0x3064 0x00000000  # actual addr: 0x0c19
write_reg 0x3068 0x00000000  # actual addr: 0x0c1a
write_reg 0x306c 0x0000003f  # actual addr: 0x0c1b
write_reg 0x3070 0x000000ff  # actual addr: 0x0c1c
write_reg 0x3074 0x00000001  # actual addr: 0x0c1d
write_reg 0x3078 0x00000000  # actual addr: 0x0c1e
write_reg 0x307c 0xc4008000  # actual addr: 0x0c1f
write_reg 0x3080 0x00004000  # actual addr: 0x0c20
write_reg 0x3098 0x00000000  # actual addr: 0x0c26
write_reg 0x30a4 0x00000001  # actual addr: 0x0c29
write_reg 0x30a8 0x00000000  # actual addr: 0x0c2a
write_reg 0x30ac 0x00000001  # actual addr: 0x0c2b
write_reg 0x30b0 0x00000000  # actual addr: 0x0c2c
write_reg 0x30b4 0x00000000  # actual addr: 0x0c2d
write_reg 0x30b8 0x00000000  # actual addr: 0x0c2e
write_reg 0x30bc 0x0003001b  # actual addr: 0x0c2f
read_reg 0x7004 0xffffffff 0x00000000  # actual addr: 0x1c01
write_reg 0x7004 0x00000001  # actual addr: 0x1c01
write_reg 0x5004 0x00000001  # actual addr: 0x1401
write_reg 0x6004 0x00000001  # actual addr: 0x1801
write_reg 0x4004 0x00000001  # actual addr: 0x1001
write_reg 0x3004 0x00000001  # actual addr: 0x0c01
read_reg 0x7000 0xffffffff 0x00000000  # actual addr: 0x1c00
read_reg 0x5000 0xffffffff 0x00000000  # actual addr: 0x1400
read_reg 0x6000 0xffffffff 0x00000000  # actual addr: 0x1800
read_reg 0x4000 0xffffffff 0x00000000  # actual addr: 0x1000
read_reg 0x3000 0xffffffff 0x00000000  # actual addr: 0x0c00
write_reg 0x700c 0x00000000  # actual addr: 0x1c03
write_reg 0x7010 0x00170037  # actual addr: 0x1c04
write_reg 0x7014 0x000000ff  # actual addr: 0x1c05
write_reg 0x7018 0x00000000  # actual addr: 0x1c06
write_reg 0x701c 0x00000000  # actual addr: 0x1c07
write_reg 0x7020 0x000001c0  # actual addr: 0x1c08
write_reg 0x7024 0x00002a00  # actual addr: 0x1c09
write_reg 0x7028 0x00000000  # actual addr: 0x1c0a
write_reg 0x702c 0x00000000  # actual addr: 0x1c0b
write_reg 0x500c 0x00000000  # actual addr: 0x1403
write_reg 0x600c 0x00000000  # actual addr: 0x1803
write_reg 0x400c 0x00100000  # actual addr: 0x1003
write_reg 0x4010 0x00000000  # actual addr: 0x1004
write_reg 0x4014 0x00170037  # actual addr: 0x1005
write_reg 0x4018 0x0000003f  # actual addr: 0x1006
write_reg 0x401c 0x00000000  # actual addr: 0x1007
write_reg 0x4020 0x00000000  # actual addr: 0x1008
write_reg 0x4024 0x000001bf  # actual addr: 0x1009
write_reg 0x4028 0x00000000  # actual addr: 0x100a
write_reg 0x402c 0x00000000  # actual addr: 0x100b
write_reg 0x4030 0x00ff003f  # actual addr: 0x100c
write_reg 0x4034 0x00004000  # actual addr: 0x100d
write_reg 0x4038 0x00000000  # actual addr: 0x100e
write_reg 0x403c 0x00170037  # actual addr: 0x100f
write_reg 0x4040 0x000000ff  # actual addr: 0x1010
write_reg 0x4044 0x0000053f  # actual addr: 0x1011
write_reg 0x4048 0x00000017  # actual addr: 0x1012
write_reg 0x404c 0x00000000  # actual addr: 0x1013
write_reg 0x4050 0x00000000  # actual addr: 0x1014
write_reg 0x4054 0x00000000  # actual addr: 0x1015
write_reg 0x4058 0x00000000  # actual addr: 0x1016
write_reg 0x405c 0x0003001b  # actual addr: 0x1017
write_reg 0x4060 0x00000000  # actual addr: 0x1018
write_reg 0x3014 0x00100000  # actual addr: 0x0c05
write_reg 0x3018 0x00100000  # actual addr: 0x0c06
write_reg 0x301c 0x00170037  # actual addr: 0x0c07
write_reg 0x3020 0x0000003f  # actual addr: 0x0c08
write_reg 0x3024 0x00170037  # actual addr: 0x0c09
write_reg 0x302c 0x00000001  # actual addr: 0x0c0b
write_reg 0x3030 0x00000000  # actual addr: 0x0c0c
write_reg 0x3034 0xc1103800  # actual addr: 0x0c0d
write_reg 0x3038 0x00000000  # actual addr: 0x0c0e
write_reg 0x303c 0xc1103800  # actual addr: 0x0c0f
write_reg 0x3040 0x000001c0  # actual addr: 0x0c10
write_reg 0x3048 0x00006200  # actual addr: 0x0c12
write_reg 0x3044 0x00000000  # actual addr: 0x0c11
write_reg 0x304c 0x00000001  # actual addr: 0x0c13
write_reg 0x3058 0x00000000  # actual addr: 0x0c16
write_reg 0x305c 0x00000000  # actual addr: 0x0c17
write_reg 0x3060 0x000001bf  # actual addr: 0x0c18
write_reg 0x3064 0x00000000  # actual addr: 0x0c19
write_reg 0x3068 0x00000000  # actual addr: 0x0c1a
write_reg 0x306c 0x0000003f  # actual addr: 0x0c1b
write_reg 0x3070 0x000000ff  # actual addr: 0x0c1c
write_reg 0x3074 0x00000001  # actual addr: 0x0c1d
write_reg 0x3078 0x00000000  # actual addr: 0x0c1e
write_reg 0x307c 0xc4008000  # actual addr: 0x0c1f
write_reg 0x3080 0x00004000  # actual addr: 0x0c20
write_reg 0x3098 0x00000000  # actual addr: 0x0c26
write_reg 0x30a4 0x00000000  # actual addr: 0x0c29
write_reg 0x30b0 0x00000000  # actual addr: 0x0c2c
write_reg 0x30b4 0x00000000  # actual addr: 0x0c2d
write_reg 0x30b8 0x00000000  # actual addr: 0x0c2e
write_reg 0x30bc 0x0003001b  # actual addr: 0x0c2f
read_reg 0x9004 0xffffffff 0x00000001  # actual addr: 0x2401
read_reg 0x8004 0xffffffff 0x00000001  # actual addr: 0x2001
write_reg 0x9004 0x00000000  # actual addr: 0x2401
write_reg 0x8004 0x00000000  # actual addr: 0x2001
read_reg 0x1004 0xffffffff 0x00000000  # actual addr: 0x0401
write_reg 0x1004 0x00000000  # actual addr: 0x0401
write_reg 0x8070 0x00000000  # actual addr: 0x201c
write_reg 0x8028 0x00000000  # actual addr: 0x200a
write_reg 0x8040 0x00000000  # actual addr: 0x2010
write_reg 0x8058 0x00000000  # actual addr: 0x2016
write_reg 0x8070 0x00000001  # actual addr: 0x201c
write_reg 0x800c 0x00000037  # actual addr: 0x2003
write_reg 0x8010 0x0000001f  # actual addr: 0x2004
write_reg 0x8014 0x000000ff  # actual addr: 0x2005
write_reg 0x8028 0x0000002a  # actual addr: 0x200a
write_reg 0x802c 0xc4005000  # actual addr: 0x200b
write_reg 0x8030 0x00000000  # actual addr: 0x200c
write_reg 0x8034 0x00000010  # actual addr: 0x200d
write_reg 0x8038 0x00000010  # actual addr: 0x200e
write_reg 0x8040 0x00000031  # actual addr: 0x2010
write_reg 0x8058 0x00000031  # actual addr: 0x2016
write_reg 0x903c 0x00000037  # actual addr: 0x240f
write_reg 0x9040 0x0000001f  # actual addr: 0x2410
write_reg 0x9044 0x000000ff  # actual addr: 0x2411
write_reg 0x904c 0x00000000  # actual addr: 0x2413
write_reg 0x9048 0xc1200000  # actual addr: 0x2412
write_reg 0x9050 0x000001c0  # actual addr: 0x2414
write_reg 0x9054 0x00006200  # actual addr: 0x2415
write_reg 0x9058 0x00000058  # actual addr: 0x2416
write_reg 0x905c 0x00000001  # actual addr: 0x2417
write_reg 0x9064 0x00000001  # actual addr: 0x2419
write_reg 0x906c 0x00000053  # actual addr: 0x241b
write_reg 0x9080 0x00000053  # actual addr: 0x2420
write_reg 0x90b0 0x00000001  # actual addr: 0x242c
write_reg 0x90b4 0x00000001  # actual addr: 0x242d
write_reg 0x90bc 0x00000000  # actual addr: 0x242f
write_reg 0x90c0 0x00000000  # actual addr: 0x2430
write_reg 0x90c4 0x0000423f  # actual addr: 0x2431
write_reg 0x90c8 0x00000014  # actual addr: 0x2432
write_reg 0x9004 0x00000000  # actual addr: 0x2401
write_reg 0x8004 0x00000000  # actual addr: 0x2001
write_reg 0x8008 0x00000001  # actual addr: 0x2002
write_reg 0x9038 0x00000001  # actual addr: 0x240e
write_reg 0xb004 0x00000000  # actual addr: 0x2c01
write_reg 0xa004 0x00000000  # actual addr: 0x2801
write_reg 0xa008 0x00000001  # actual addr: 0x2802
write_reg 0xb008 0x00000001  # actual addr: 0x2c02
read_reg 0x9004 0xffffffff 0x00000000  # actual addr: 0x2401
read_reg 0x8004 0xffffffff 0x00000000  # actual addr: 0x2001
write_reg 0x9004 0x00000001  # actual addr: 0x2401
write_reg 0x8004 0x00000001  # actual addr: 0x2001
read_reg 0x1004 0xffffffff 0x00000000  # actual addr: 0x0401
write_reg 0x1004 0x00000000  # actual addr: 0x0401
write_reg 0x8070 0x00000000  # actual addr: 0x201c
write_reg 0x8028 0x00000000  # actual addr: 0x200a
write_reg 0x8040 0x00000000  # actual addr: 0x2010
write_reg 0x8058 0x00000000  # actual addr: 0x2016
write_reg 0x8070 0x00000001  # actual addr: 0x201c
write_reg 0x800c 0x00000037  # actual addr: 0x2003
write_reg 0x8010 0x00000017  # actual addr: 0x2004
write_reg 0x8014 0x000000ff  # actual addr: 0x2005
write_reg 0x8028 0x0000002a  # actual addr: 0x200a
write_reg 0x802c 0xc4005000  # actual addr: 0x200b
write_reg 0x8030 0x00000000  # actual addr: 0x200c
write_reg 0x8034 0x00000010  # actual addr: 0x200d
write_reg 0x8038 0x00000010  # actual addr: 0x200e
write_reg 0x8040 0x00000031  # actual addr: 0x2010
write_reg 0x8058 0x00000031  # actual addr: 0x2016
write_reg 0x903c 0x00000037  # actual addr: 0x240f
write_reg 0x9040 0x00000017  # actual addr: 0x2410
write_reg 0x9044 0x000000ff  # actual addr: 0x2411
write_reg 0x904c 0x00000000  # actual addr: 0x2413
write_reg 0x9048 0xc1203800  # actual addr: 0x2412
write_reg 0x9050 0x000001c0  # actual addr: 0x2414
write_reg 0x9054 0x00006200  # actual addr: 0x2415
write_reg 0x9058 0x00000058  # actual addr: 0x2416
write_reg 0x905c 0x00000001  # actual addr: 0x2417
write_reg 0x9064 0x00000001  # actual addr: 0x2419
write_reg 0x906c 0x00000053  # actual addr: 0x241b
write_reg 0x9080 0x00000053  # actual addr: 0x2420
write_reg 0x90b0 0x00000001  # actual addr: 0x242c
write_reg 0x90b4 0x00000001  # actual addr: 0x242d
write_reg 0x90bc 0x00000000  # actual addr: 0x242f
write_reg 0x90c0 0x00000000  # actual addr: 0x2430
write_reg 0x90c4 0x0000423f  # actual addr: 0x2431
write_reg 0x90c8 0x00000014  # actual addr: 0x2432
write_reg 0x9004 0x00000001  # actual addr: 0x2401
write_reg 0x8004 0x00000001  # actual addr: 0x2001
write_reg 0x8008 0x00000001  # actual addr: 0x2002
write_reg 0x9038 0x00000001  # actual addr: 0x240e
write_reg 0x7004 0x00000001  # actual addr: 0x1c01
write_reg 0x5004 0x00000001  # actual addr: 0x1401
write_reg 0x6004 0x00000001  # actual addr: 0x1801
write_reg 0x4004 0x00000001  # actual addr: 0x1001
write_reg 0x3004 0x00000001  # actual addr: 0x0c01
read_reg 0x300c 0xffffffff 0x00000001  # actual addr: 0x0c03
write_reg 0x7008 0x00000001  # actual addr: 0x1c02
write_reg 0x5008 0x00000001  # actual addr: 0x1402
write_reg 0x6008 0x00000001  # actual addr: 0x1802
write_reg 0x4008 0x00000001  # actual addr: 0x1002
write_reg 0x3010 0x00000001  # actual addr: 0x0c04
read_reg 0x1004 0xffffffff 0x00000000  # actual addr: 0x0401
read_reg 0x100c 0xffffffff 0x00000010  # actual addr: 0x0403
write_reg 0x100c 0x00000010  # actual addr: 0x0403
read_reg 0x1004 0xffffffff 0x00000000  # actual addr: 0x0401
read_reg 0x100c 0xffffffff 0x00000000  # actual addr: 0x0403
write_reg 0x7004 0x00000000  # actual addr: 0x1c01
write_reg 0x5004 0x00000000  # actual addr: 0x1401
write_reg 0x6004 0x00000000  # actual addr: 0x1801
write_reg 0x4004 0x00000000  # actual addr: 0x1001
write_reg 0x3004 0x00000000  # actual addr: 0x0c01
read_reg 0x300c 0xffffffff 0x00000001  # actual addr: 0x0c03
write_reg 0x7008 0x00000001  # actual addr: 0x1c02
write_reg 0x5008 0x00000001  # actual addr: 0x1402
write_reg 0x6008 0x00000001  # actual addr: 0x1802
write_reg 0x4008 0x00000001  # actual addr: 0x1002
write_reg 0x3010 0x00000001  # actual addr: 0x0c04
read_reg 0x1004 0xffffffff 0x00000000  # actual addr: 0x0401
read_reg 0x100c 0xffffffff 0x003f0003  # actual addr: 0x0403
write_reg 0x100c 0x003f0003  # actual addr: 0x0403
read_reg 0x1004 0xffffffff 0x00000000  # actual addr: 0x0401
read_reg 0x100c 0xffffffff 0x00000000  # actual addr: 0x0403
read_reg 0x7004 0xffffffff 0x00000000  # actual addr: 0x1c01
write_reg 0x7004 0x00000000  # actual addr: 0x1c01
write_reg 0x5004 0x00000000  # actual addr: 0x1401
write_reg 0x6004 0x00000000  # actual addr: 0x1801
write_reg 0x4004 0x00000000  # actual addr: 0x1001
write_reg 0x3004 0x00000000  # actual addr: 0x0c01
read_reg 0x7000 0xffffffff 0x00000000  # actual addr: 0x1c00
read_reg 0x5000 0xffffffff 0x00000000  # actual addr: 0x1400
read_reg 0x6000 0xffffffff 0x00000000  # actual addr: 0x1800
read_reg 0x4000 0xffffffff 0x00000000  # actual addr: 0x1000
read_reg 0x3000 0xffffffff 0x00000000  # actual addr: 0x0c00
write_reg 0x700c 0x00000000  # actual addr: 0x1c03
write_reg 0x7010 0x00220037  # actual addr: 0x1c04
write_reg 0x7014 0x0000003f  # actual addr: 0x1c05
write_reg 0x7018 0x00000000  # actual addr: 0x1c06
write_reg 0x701c 0x00000000  # actual addr: 0x1c07
write_reg 0x7020 0x000001c0  # actual addr: 0x1c08
write_reg 0x7024 0x00003d40  # actual addr: 0x1c09
write_reg 0x7028 0x00000000  # actual addr: 0x1c0a
write_reg 0x702c 0x00000000  # actual addr: 0x1c0b
write_reg 0x500c 0x00000000  # actual addr: 0x1403
write_reg 0x600c 0x00000000  # actual addr: 0x1803
write_reg 0x400c 0x10000000  # actual addr: 0x1003
write_reg 0x4010 0x00000000  # actual addr: 0x1004
write_reg 0x4014 0x00220037  # actual addr: 0x1005
write_reg 0x4018 0x0000003f  # actual addr: 0x1006
write_reg 0x401c 0x00000000  # actual addr: 0x1007
write_reg 0x4020 0x00000000  # actual addr: 0x1008
write_reg 0x4024 0x000001bf  # actual addr: 0x1009
write_reg 0x4028 0x00000000  # actual addr: 0x100a
write_reg 0x402c 0x00000000  # actual addr: 0x100b
write_reg 0x4030 0x003f003f  # actual addr: 0x100c
write_reg 0x4034 0x00001000  # actual addr: 0x100d
write_reg 0x4038 0x00000000  # actual addr: 0x100e
write_reg 0x403c 0x00220037  # actual addr: 0x100f
write_reg 0x4040 0x0000003f  # actual addr: 0x1010
write_reg 0x4044 0x000007a7  # actual addr: 0x1011
write_reg 0x4048 0x00000022  # actual addr: 0x1012
write_reg 0x404c 0x00000000  # actual addr: 0x1013
write_reg 0x4050 0x00000000  # actual addr: 0x1014
write_reg 0x4054 0x00000000  # actual addr: 0x1015
write_reg 0x4058 0x00000000  # actual addr: 0x1016
write_reg 0x405c 0x0000001e  # actual addr: 0x1017
write_reg 0x4060 0x00000000  # actual addr: 0x1018
write_reg 0x3014 0x10000000  # actual addr: 0x0c05
write_reg 0x3018 0x00100000  # actual addr: 0x0c06
write_reg 0x301c 0x00220037  # actual addr: 0x0c07
write_reg 0x3020 0x0000003f  # actual addr: 0x0c08
write_reg 0x3024 0x00220037  # actual addr: 0x0c09
write_reg 0x302c 0x00000001  # actual addr: 0x0c0b
write_reg 0x3030 0x00000000  # actual addr: 0x0c0c
write_reg 0x3034 0xc1100000  # actual addr: 0x0c0d
write_reg 0x3038 0x00000000  # actual addr: 0x0c0e
write_reg 0x303c 0xc1100000  # actual addr: 0x0c0f
write_reg 0x3040 0x000001c0  # actual addr: 0x0c10
write_reg 0x3048 0x00006200  # actual addr: 0x0c12
write_reg 0x3044 0x00000000  # actual addr: 0x0c11
write_reg 0x304c 0x00000001  # actual addr: 0x0c13
write_reg 0x3058 0x00000000  # actual addr: 0x0c16
write_reg 0x305c 0x00000000  # actual addr: 0x0c17
write_reg 0x3060 0x000001bf  # actual addr: 0x0c18
write_reg 0x3064 0x00000000  # actual addr: 0x0c19
write_reg 0x3068 0x00000000  # actual addr: 0x0c1a
write_reg 0x306c 0x0000003f  # actual addr: 0x0c1b
write_reg 0x3070 0x0000003f  # actual addr: 0x0c1c
write_reg 0x3074 0x00000001  # actual addr: 0x0c1d
write_reg 0x3078 0x00000000  # actual addr: 0x0c1e
write_reg 0x307c 0xc4006000  # actual addr: 0x0c1f
write_reg 0x3080 0x00001000  # actual addr: 0x0c20
write_reg 0x3098 0x00000000  # actual addr: 0x0c26
write_reg 0x30a4 0x00000001  # actual addr: 0x0c29
write_reg 0x30a8 0x00000000  # actual addr: 0x0c2a
write_reg 0x30ac 0x00000001  # actual addr: 0x0c2b
write_reg 0x30b0 0x00000000  # actual addr: 0x0c2c
write_reg 0x30b4 0x00000000  # actual addr: 0x0c2d
write_reg 0x30b8 0x00000000  # actual addr: 0x0c2e
write_reg 0x30bc 0x0000001e  # actual addr: 0x0c2f
read_reg 0x7004 0xffffffff 0x00000000  # actual addr: 0x1c01
write_reg 0x7004 0x00000001  # actual addr: 0x1c01
write_reg 0x5004 0x00000001  # actual addr: 0x1401
write_reg 0x6004 0x00000001  # actual addr: 0x1801
write_reg 0x4004 0x00000001  # actual addr: 0x1001
write_reg 0x3004 0x00000001  # actual addr: 0x0c01
read_reg 0x7000 0xffffffff 0x00000000  # actual addr: 0x1c00
read_reg 0x5000 0xffffffff 0x00000000  # actual addr: 0x1400
read_reg 0x6000 0xffffffff 0x00000000  # actual addr: 0x1800
read_reg 0x4000 0xffffffff 0x00000000  # actual addr: 0x1000
read_reg 0x3000 0xffffffff 0x00000000  # actual addr: 0x0c00
write_reg 0x700c 0x00000000  # actual addr: 0x1c03
write_reg 0x7010 0x00140037  # actual addr: 0x1c04
write_reg 0x7014 0x0000003f  # actual addr: 0x1c05
write_reg 0x7018 0x00000000  # actual addr: 0x1c06
write_reg 0x701c 0x00000000  # actual addr: 0x1c07
write_reg 0x7020 0x000001c0  # actual addr: 0x1c08
write_reg 0x7024 0x000024c0  # actual addr: 0x1c09
write_reg 0x7028 0x00000000  # actual addr: 0x1c0a
write_reg 0x702c 0x00000000  # actual addr: 0x1c0b
write_reg 0x500c 0x00000000  # actual addr: 0x1403
write_reg 0x600c 0x00000000  # actual addr: 0x1803
write_reg 0x400c 0x00100000  # actual addr: 0x1003
write_reg 0x4010 0x00000000  # actual addr: 0x1004
write_reg 0x4014 0x00140037  # actual addr: 0x1005
write_reg 0x4018 0x0000003f  # actual addr: 0x1006
write_reg 0x401c 0x00000000  # actual addr: 0x1007
write_reg 0x4020 0x00000000  # actual addr: 0x1008
write_reg 0x4024 0x000001bf  # actual addr: 0x1009
write_reg 0x4028 0x00000000  # actual addr: 0x100a
write_reg 0x402c 0x00000000  # actual addr: 0x100b
write_reg 0x4030 0x003f003f  # actual addr: 0x100c
write_reg 0x4034 0x00001000  # actual addr: 0x100d
write_reg 0x4038 0x00000000  # actual addr: 0x100e
write_reg 0x403c 0x00140037  # actual addr: 0x100f
write_reg 0x4040 0x0000003f  # actual addr: 0x1010
write_reg 0x4044 0x00000497  # actual addr: 0x1011
write_reg 0x4048 0x00000014  # actual addr: 0x1012
write_reg 0x404c 0x00000000  # actual addr: 0x1013
write_reg 0x4050 0x00000000  # actual addr: 0x1014
write_reg 0x4054 0x00000000  # actual addr: 0x1015
write_reg 0x4058 0x00000000  # actual addr: 0x1016
write_reg 0x405c 0x0000001e  # actual addr: 0x1017
write_reg 0x4060 0x00000000  # actual addr: 0x1018
write_reg 0x3014 0x00100000  # actual addr: 0x0c05
write_reg 0x3018 0x00100000  # actual addr: 0x0c06
write_reg 0x301c 0x00140037  # actual addr: 0x0c07
write_reg 0x3020 0x0000003f  # actual addr: 0x0c08
write_reg 0x3024 0x00140037  # actual addr: 0x0c09
write_reg 0x302c 0x00000001  # actual addr: 0x0c0b
write_reg 0x3030 0x00000000  # actual addr: 0x0c0c
write_reg 0x3034 0xc1103d40  # actual addr: 0x0c0d
write_reg 0x3038 0x00000000  # actual addr: 0x0c0e
write_reg 0x303c 0xc1103d40  # actual addr: 0x0c0f
write_reg 0x3040 0x000001c0  # actual addr: 0x0c10
write_reg 0x3048 0x00006200  # actual addr: 0x0c12
write_reg 0x3044 0x00000000  # actual addr: 0x0c11
write_reg 0x304c 0x00000001  # actual addr: 0x0c13
write_reg 0x3058 0x00000000  # actual addr: 0x0c16
write_reg 0x305c 0x00000000  # actual addr: 0x0c17
write_reg 0x3060 0x000001bf  # actual addr: 0x0c18
write_reg 0x3064 0x00000000  # actual addr: 0x0c19
write_reg 0x3068 0x00000000  # actual addr: 0x0c1a
write_reg 0x306c 0x0000003f  # actual addr: 0x0c1b
write_reg 0x3070 0x0000003f  # actual addr: 0x0c1c
write_reg 0x3074 0x00000001  # actual addr: 0x0c1d
write_reg 0x3078 0x00000000  # actual addr: 0x0c1e
write_reg 0x307c 0xc4006000  # actual addr: 0x0c1f
write_reg 0x3080 0x00001000  # actual addr: 0x0c20
write_reg 0x3098 0x00000000  # actual addr: 0x0c26
write_reg 0x30a4 0x00000000  # actual addr: 0x0c29
write_reg 0x30b0 0x00000000  # actual addr: 0x0c2c
write_reg 0x30b4 0x00000000  # actual addr: 0x0c2d
write_reg 0x30b8 0x00000000  # actual addr: 0x0c2e
write_reg 0x30bc 0x0000001e  # actual addr: 0x0c2f
read_reg 0x9004 0xffffffff 0x00000001  # actual addr: 0x2401
read_reg 0x8004 0xffffffff 0x00000001  # actual addr: 0x2001
write_reg 0x9004 0x00000000  # actual addr: 0x2401
write_reg 0x8004 0x00000000  # actual addr: 0x2001
read_reg 0x1004 0xffffffff 0x00000000  # actual addr: 0x0401
write_reg 0x1004 0x00000000  # actual addr: 0x0401
write_reg 0x8070 0x00000000  # actual addr: 0x201c
write_reg 0x8028 0x00000000  # actual addr: 0x200a
write_reg 0x8040 0x00000000  # actual addr: 0x2010
write_reg 0x8058 0x00000000  # actual addr: 0x2016
write_reg 0x8070 0x00000001  # actual addr: 0x201c
write_reg 0x800c 0x00000037  # actual addr: 0x2003
write_reg 0x8010 0x00000022  # actual addr: 0x2004
write_reg 0x8014 0x0000003f  # actual addr: 0x2005
write_reg 0x8028 0x0000002a  # actual addr: 0x200a
write_reg 0x802c 0xc4007000  # actual addr: 0x200b
write_reg 0x8030 0x00000000  # actual addr: 0x200c
write_reg 0x8034 0x00000010  # actual addr: 0x200d
write_reg 0x8038 0x00000010  # actual addr: 0x200e
write_reg 0x8040 0x00000031  # actual addr: 0x2010
write_reg 0x8058 0x00000031  # actual addr: 0x2016
write_reg 0x903c 0x00000037  # actual addr: 0x240f
write_reg 0x9040 0x00000022  # actual addr: 0x2410
write_reg 0x9044 0x0000003f  # actual addr: 0x2411
write_reg 0x904c 0x00000000  # actual addr: 0x2413
write_reg 0x9048 0xc1140000  # actual addr: 0x2412
write_reg 0x9050 0x000001c0  # actual addr: 0x2414
write_reg 0x9054 0x00006200  # actual addr: 0x2415
write_reg 0x9058 0x00000018  # actual addr: 0x2416
write_reg 0x905c 0x00000001  # actual addr: 0x2417
write_reg 0x9064 0x00000001  # actual addr: 0x2419
write_reg 0x906c 0x00000053  # actual addr: 0x241b
write_reg 0x9080 0x00000053  # actual addr: 0x2420
write_reg 0x90b0 0x00000001  # actual addr: 0x242c
write_reg 0x90b4 0x00000001  # actual addr: 0x242d
write_reg 0x90bc 0x00000000  # actual addr: 0x242f
write_reg 0x90c0 0x00000000  # actual addr: 0x2430
write_reg 0x90c4 0x00004751  # actual addr: 0x2431
write_reg 0x90c8 0x00000015  # actual addr: 0x2432
write_reg 0x9004 0x00000000  # actual addr: 0x2401
write_reg 0x8004 0x00000000  # actual addr: 0x2001
write_reg 0x8008 0x00000001  # actual addr: 0x2002
write_reg 0x9038 0x00000001  # actual addr: 0x240e
write_reg 0x7004 0x00000000  # actual addr: 0x1c01
write_reg 0x5004 0x00000000  # actual addr: 0x1401
write_reg 0x6004 0x00000000  # actual addr: 0x1801
write_reg 0x4004 0x00000000  # actual addr: 0x1001
write_reg 0x3004 0x00000000  # actual addr: 0x0c01
read_reg 0x300c 0xffffffff 0x00000001  # actual addr: 0x0c03
write_reg 0x7008 0x00000001  # actual addr: 0x1c02
write_reg 0x5008 0x00000001  # actual addr: 0x1402
write_reg 0x6008 0x00000001  # actual addr: 0x1802
write_reg 0x4008 0x00000001  # actual addr: 0x1002
write_reg 0x3010 0x00000001  # actual addr: 0x0c04
read_reg 0x9004 0xffffffff 0x00000000  # actual addr: 0x2401
read_reg 0x8004 0xffffffff 0x00000000  # actual addr: 0x2001
write_reg 0x9004 0x00000001  # actual addr: 0x2401
write_reg 0x8004 0x00000001  # actual addr: 0x2001
read_reg 0x1004 0xffffffff 0x00000000  # actual addr: 0x0401
write_reg 0x1004 0x00000000  # actual addr: 0x0401
write_reg 0x8070 0x00000000  # actual addr: 0x201c
write_reg 0x8028 0x00000000  # actual addr: 0x200a
write_reg 0x8040 0x00000000  # actual addr: 0x2010
write_reg 0x8058 0x00000000  # actual addr: 0x2016
write_reg 0x8070 0x00000001  # actual addr: 0x201c
write_reg 0x800c 0x00000037  # actual addr: 0x2003
write_reg 0x8010 0x00000014  # actual addr: 0x2004
write_reg 0x8014 0x0000003f  # actual addr: 0x2005
write_reg 0x8028 0x0000002a  # actual addr: 0x200a
write_reg 0x802c 0xc4007000  # actual addr: 0x200b
write_reg 0x8030 0x00000000  # actual addr: 0x200c
write_reg 0x8034 0x00000010  # actual addr: 0x200d
write_reg 0x8038 0x00000010  # actual addr: 0x200e
write_reg 0x8040 0x00000031  # actual addr: 0x2010
write_reg 0x8058 0x00000031  # actual addr: 0x2016
write_reg 0x903c 0x00000037  # actual addr: 0x240f
write_reg 0x9040 0x00000014  # actual addr: 0x2410
write_reg 0x9044 0x0000003f  # actual addr: 0x2411
write_reg 0x904c 0x00000000  # actual addr: 0x2413
write_reg 0x9048 0xc1143d40  # actual addr: 0x2412
write_reg 0x9050 0x000001c0  # actual addr: 0x2414
write_reg 0x9054 0x00006200  # actual addr: 0x2415
write_reg 0x9058 0x00000018  # actual addr: 0x2416
write_reg 0x905c 0x00000001  # actual addr: 0x2417
write_reg 0x9064 0x00000001  # actual addr: 0x2419
write_reg 0x906c 0x00000053  # actual addr: 0x241b
write_reg 0x9080 0x00000053  # actual addr: 0x2420
write_reg 0x90b0 0x00000001  # actual addr: 0x242c
write_reg 0x90b4 0x00000001  # actual addr: 0x242d
write_reg 0x90bc 0x00000000  # actual addr: 0x242f
write_reg 0x90c0 0x00000000  # actual addr: 0x2430
write_reg 0x90c4 0x00004751  # actual addr: 0x2431
write_reg 0x90c8 0x00000015  # actual addr: 0x2432
write_reg 0x9004 0x00000001  # actual addr: 0x2401
write_reg 0x8004 0x00000001  # actual addr: 0x2001
write_reg 0x8008 0x00000001  # actual addr: 0x2002
write_reg 0x9038 0x00000001  # actual addr: 0x240e
write_reg 0x7004 0x00000001  # actual addr: 0x1c01
write_reg 0x5004 0x00000001  # actual addr: 0x1401
write_reg 0x6004 0x00000001  # actual addr: 0x1801
write_reg 0x4004 0x00000001  # actual addr: 0x1001
write_reg 0x3004 0x00000001  # actual addr: 0x0c01
read_reg 0x300c 0xffffffff 0x00000001  # actual addr: 0x0c03
write_reg 0x7008 0x00000001  # actual addr: 0x1c02
write_reg 0x5008 0x00000001  # actual addr: 0x1402
write_reg 0x6008 0x00000001  # actual addr: 0x1802
write_reg 0x4008 0x00000001  # actual addr: 0x1002
write_reg 0x3010 0x00000001  # actual addr: 0x0c04
read_reg 0x1004 0xffffffff 0x00000000  # actual addr: 0x0401
read_reg 0x100c 0xffffffff 0x00040000  # actual addr: 0x0403
write_reg 0x100c 0x00040000  # actual addr: 0x0403
read_reg 0x1004 0xffffffff 0x00000000  # actual addr: 0x0401
read_reg 0x100c 0xffffffff 0x00000000  # actual addr: 0x0403
read_reg 0x1004 0xffffffff 0x00000000  # actual addr: 0x0401
read_reg 0x100c 0xffffffff 0x003b0003  # actual addr: 0x0403
write_reg 0x100c 0x003b0003  # actual addr: 0x0403
read_reg 0x1004 0xffffffff 0x00000000  # actual addr: 0x0401
read_reg 0x100c 0xffffffff 0x00000000  # actual addr: 0x0403
read_reg 0x7004 0xffffffff 0x00000001  # actual addr: 0x1c01
write_reg 0x7004 0x00000000  # actual addr: 0x1c01
write_reg 0x5004 0x00000000  # actual addr: 0x1401
write_reg 0x6004 0x00000000  # actual addr: 0x1801
write_reg 0x4004 0x00000000  # actual addr: 0x1001
write_reg 0x3004 0x00000000  # actual addr: 0x0c01
read_reg 0x7000 0xffffffff 0x00000000  # actual addr: 0x1c00
read_reg 0x5000 0xffffffff 0x00000000  # actual addr: 0x1400
read_reg 0x6000 0xffffffff 0x00000000  # actual addr: 0x1800
read_reg 0x4000 0xffffffff 0x00000000  # actual addr: 0x1000
read_reg 0x3000 0xffffffff 0x00000000  # actual addr: 0x0c00
write_reg 0x700c 0x00000000  # actual addr: 0x1c03
write_reg 0x7010 0x001e0037  # actual addr: 0x1c04
write_reg 0x7014 0x0000003f  # actual addr: 0x1c05
write_reg 0x7018 0x00000000  # actual addr: 0x1c06
write_reg 0x701c 0x00000000  # actual addr: 0x1c07
write_reg 0x7020 0x000001c0  # actual addr: 0x1c08
write_reg 0x7024 0x00003640  # actual addr: 0x1c09
write_reg 0x7028 0x00000000  # actual addr: 0x1c0a
write_reg 0x702c 0x00000000  # actual addr: 0x1c0b
write_reg 0x500c 0x00000000  # actual addr: 0x1403
write_reg 0x600c 0x00000000  # actual addr: 0x1803
write_reg 0x400c 0x00000000  # actual addr: 0x1003
write_reg 0x4010 0x00000000  # actual addr: 0x1004
write_reg 0x4014 0x001f0037  # actual addr: 0x1005
write_reg 0x4018 0x0000003f  # actual addr: 0x1006
write_reg 0x401c 0x00000000  # actual addr: 0x1007
write_reg 0x4020 0x00000000  # actual addr: 0x1008
write_reg 0x4024 0x000001bf  # actual addr: 0x1009
write_reg 0x4028 0x00000000  # actual addr: 0x100a
write_reg 0x402c 0x00020002  # actual addr: 0x100b
write_reg 0x4030 0x003f003f  # actual addr: 0x100c
write_reg 0x4034 0x00009000  # actual addr: 0x100d
write_reg 0x4038 0x00000000  # actual addr: 0x100e
write_reg 0x403c 0x001e0037  # actual addr: 0x100f
write_reg 0x4040 0x0000003f  # actual addr: 0x1010
write_reg 0x4044 0x000006c7  # actual addr: 0x1011
write_reg 0x4048 0x0000001f  # actual addr: 0x1012
write_reg 0x404c 0x00000000  # actual addr: 0x1013
write_reg 0x4050 0x00000000  # actual addr: 0x1014
write_reg 0x4054 0x00010001  # actual addr: 0x1015
write_reg 0x4058 0x00000000  # actual addr: 0x1016
write_reg 0x405c 0x0003001b  # actual addr: 0x1017
write_reg 0x4060 0x00000000  # actual addr: 0x1018
write_reg 0x3014 0x00000000  # actual addr: 0x0c05
write_reg 0x3018 0x00100000  # actual addr: 0x0c06
write_reg 0x301c 0x001f0037  # actual addr: 0x0c07
write_reg 0x3020 0x0000003f  # actual addr: 0x0c08
write_reg 0x3024 0x001f0037  # actual addr: 0x0c09
write_reg 0x302c 0x00000001  # actual addr: 0x0c0b
write_reg 0x3030 0x00000000  # actual addr: 0x0c0c
write_reg 0x3034 0xc1140000  # actual addr: 0x0c0d
write_reg 0x3038 0x00000000  # actual addr: 0x0c0e
write_reg 0x303c 0xc1140000  # actual addr: 0x0c0f
write_reg 0x3040 0x000001c0  # actual addr: 0x0c10
write_reg 0x3048 0x00006200  # actual addr: 0x0c12
write_reg 0x3044 0x00000000  # actual addr: 0x0c11
write_reg 0x304c 0x00000001  # actual addr: 0x0c13
write_reg 0x3058 0x00000000  # actual addr: 0x0c16
write_reg 0x305c 0x00000000  # actual addr: 0x0c17
write_reg 0x3060 0x000001bf  # actual addr: 0x0c18
write_reg 0x3064 0x00000000  # actual addr: 0x0c19
write_reg 0x3068 0x00000000  # actual addr: 0x0c1a
write_reg 0x306c 0x0000023f  # actual addr: 0x0c1b
write_reg 0x3070 0x0000003f  # actual addr: 0x0c1c
write_reg 0x3074 0x00000001  # actual addr: 0x0c1d
write_reg 0x3078 0x00000000  # actual addr: 0x0c1e
write_reg 0x307c 0xc4010000  # actual addr: 0x0c1f
write_reg 0x3080 0x00009000  # actual addr: 0x0c20
write_reg 0x3098 0x00000000  # actual addr: 0x0c26
write_reg 0x30a4 0x00000001  # actual addr: 0x0c29
write_reg 0x30a8 0x00000000  # actual addr: 0x0c2a
write_reg 0x30ac 0x00000001  # actual addr: 0x0c2b
write_reg 0x30b0 0x00000000  # actual addr: 0x0c2c
write_reg 0x30b4 0x00010101  # actual addr: 0x0c2d
write_reg 0x30b8 0x00000000  # actual addr: 0x0c2e
write_reg 0x30bc 0x0003001b  # actual addr: 0x0c2f
read_reg 0x7004 0xffffffff 0x00000000  # actual addr: 0x1c01
write_reg 0x7004 0x00000001  # actual addr: 0x1c01
write_reg 0x5004 0x00000001  # actual addr: 0x1401
write_reg 0x6004 0x00000001  # actual addr: 0x1801
write_reg 0x4004 0x00000001  # actual addr: 0x1001
write_reg 0x3004 0x00000001  # actual addr: 0x0c01
read_reg 0x7000 0xffffffff 0x00000000  # actual addr: 0x1c00
read_reg 0x5000 0xffffffff 0x00000000  # actual addr: 0x1400
read_reg 0x6000 0xffffffff 0x00000000  # actual addr: 0x1800
read_reg 0x4000 0xffffffff 0x00000000  # actual addr: 0x1000
read_reg 0x3000 0xffffffff 0x00000000  # actual addr: 0x0c00
write_reg 0x700c 0x00000000  # actual addr: 0x1c03
write_reg 0x7010 0x00180037  # actual addr: 0x1c04
write_reg 0x7014 0x0000003f  # actual addr: 0x1c05
write_reg 0x7018 0x00000000  # actual addr: 0x1c06
write_reg 0x701c 0x00000000  # actual addr: 0x1c07
write_reg 0x7020 0x000001c0  # actual addr: 0x1c08
write_reg 0x7024 0x00002bc0  # actual addr: 0x1c09
write_reg 0x7028 0x00000000  # actual addr: 0x1c0a
write_reg 0x702c 0x00000000  # actual addr: 0x1c0b
write_reg 0x500c 0x00000000  # actual addr: 0x1403
write_reg 0x600c 0x00000000  # actual addr: 0x1803
write_reg 0x400c 0x00000000  # actual addr: 0x1003
write_reg 0x4010 0x00000000  # actual addr: 0x1004
write_reg 0x4014 0x00190037  # actual addr: 0x1005
write_reg 0x4018 0x0000003f  # actual addr: 0x1006
write_reg 0x401c 0x00000000  # actual addr: 0x1007
write_reg 0x4020 0x00000000  # actual addr: 0x1008
write_reg 0x4024 0x000001bf  # actual addr: 0x1009
write_reg 0x4028 0x00000000  # actual addr: 0x100a
write_reg 0x402c 0x00020002  # actual addr: 0x100b
write_reg 0x4030 0x003f003f  # actual addr: 0x100c
write_reg 0x4034 0x00009000  # actual addr: 0x100d
write_reg 0x4038 0x00000000  # actual addr: 0x100e
write_reg 0x403c 0x00180037  # actual addr: 0x100f
write_reg 0x4040 0x0000003f  # actual addr: 0x1010
write_reg 0x4044 0x00000577  # actual addr: 0x1011
write_reg 0x4048 0x00000019  # actual addr: 0x1012
write_reg 0x404c 0x00000000  # actual addr: 0x1013
write_reg 0x4050 0x00000000  # actual addr: 0x1014
write_reg 0x4054 0x00000001  # actual addr: 0x1015
write_reg 0x4058 0x00000000  # actual addr: 0x1016
write_reg 0x405c 0x0003001b  # actual addr: 0x1017
write_reg 0x4060 0x00000000  # actual addr: 0x1018
write_reg 0x3014 0x00000000  # actual addr: 0x0c05
write_reg 0x3018 0x00100000  # actual addr: 0x0c06
write_reg 0x301c 0x00190037  # actual addr: 0x0c07
write_reg 0x3020 0x0000003f  # actual addr: 0x0c08
write_reg 0x3024 0x00190037  # actual addr: 0x0c09
write_reg 0x302c 0x00000001  # actual addr: 0x0c0b
write_reg 0x3030 0x00000000  # actual addr: 0x0c0c
write_reg 0x3034 0xc1143480  # actual addr: 0x0c0d
write_reg 0x3038 0x00000000  # actual addr: 0x0c0e
write_reg 0x303c 0xc1143480  # actual addr: 0x0c0f
write_reg 0x3040 0x000001c0  # actual addr: 0x0c10
write_reg 0x3048 0x00006200  # actual addr: 0x0c12
write_reg 0x3044 0x00000000  # actual addr: 0x0c11
write_reg 0x304c 0x00000001  # actual addr: 0x0c13
write_reg 0x3058 0x00000000  # actual addr: 0x0c16
write_reg 0x305c 0x00000000  # actual addr: 0x0c17
write_reg 0x3060 0x000001bf  # actual addr: 0x0c18
write_reg 0x3064 0x00000000  # actual addr: 0x0c19
write_reg 0x3068 0x00000000  # actual addr: 0x0c1a
write_reg 0x306c 0x0000023f  # actual addr: 0x0c1b
write_reg 0x3070 0x0000003f  # actual addr: 0x0c1c
write_reg 0x3074 0x00000001  # actual addr: 0x0c1d
write_reg 0x3078 0x00000000  # actual addr: 0x0c1e
write_reg 0x307c 0xc4010000  # actual addr: 0x0c1f
write_reg 0x3080 0x00009000  # actual addr: 0x0c20
write_reg 0x3098 0x00000000  # actual addr: 0x0c26
write_reg 0x30a4 0x00000000  # actual addr: 0x0c29
write_reg 0x30b0 0x00000000  # actual addr: 0x0c2c
write_reg 0x30b4 0x01000101  # actual addr: 0x0c2d
write_reg 0x30b8 0x00000000  # actual addr: 0x0c2e
write_reg 0x30bc 0x0003001b  # actual addr: 0x0c2f
read_reg 0x9004 0xffffffff 0x00000001  # actual addr: 0x2401
read_reg 0x8004 0xffffffff 0x00000001  # actual addr: 0x2001
write_reg 0x9004 0x00000000  # actual addr: 0x2401
write_reg 0x8004 0x00000000  # actual addr: 0x2001
read_reg 0x1004 0xffffffff 0x00000000  # actual addr: 0x0401
write_reg 0x1004 0x00000000  # actual addr: 0x0401
write_reg 0x8070 0x00000000  # actual addr: 0x201c
write_reg 0x8028 0x00000000  # actual addr: 0x200a
write_reg 0x8040 0x00000000  # actual addr: 0x2010
write_reg 0x8058 0x00000000  # actual addr: 0x2016
write_reg 0x8070 0x00000001  # actual addr: 0x201c
write_reg 0x800c 0x00000037  # actual addr: 0x2003
write_reg 0x8010 0x0000001e  # actual addr: 0x2004
write_reg 0x8014 0x0000003f  # actual addr: 0x2005
write_reg 0x8028 0x0000002a  # actual addr: 0x200a
write_reg 0x802c 0xc400c000  # actual addr: 0x200b
write_reg 0x8030 0x00000000  # actual addr: 0x200c
write_reg 0x8034 0x00000010  # actual addr: 0x200d
write_reg 0x8038 0x00000010  # actual addr: 0x200e
write_reg 0x8040 0x00000031  # actual addr: 0x2010
write_reg 0x8058 0x00000031  # actual addr: 0x2016
write_reg 0x903c 0x00000037  # actual addr: 0x240f
write_reg 0x9040 0x0000001e  # actual addr: 0x2410
write_reg 0x9044 0x0000003f  # actual addr: 0x2411
write_reg 0x904c 0x00000000  # actual addr: 0x2413
write_reg 0x9048 0xc1180000  # actual addr: 0x2412
write_reg 0x9050 0x000001c0  # actual addr: 0x2414
write_reg 0x9054 0x00006200  # actual addr: 0x2415
write_reg 0x9058 0x00000018  # actual addr: 0x2416
write_reg 0x905c 0x00000101  # actual addr: 0x2417
write_reg 0x9064 0x00000001  # actual addr: 0x2419
write_reg 0x906c 0x00000053  # actual addr: 0x241b
write_reg 0x9080 0x00000053  # actual addr: 0x2420
write_reg 0x90b0 0x00000001  # actual addr: 0x242c
write_reg 0x90b4 0x00000001  # actual addr: 0x242d
write_reg 0x90bc 0x00000000  # actual addr: 0x242f
write_reg 0x90c0 0x00000000  # actual addr: 0x2430
write_reg 0x90c4 0x00006e33  # actual addr: 0x2431
write_reg 0x90c8 0x00000018  # actual addr: 0x2432
write_reg 0x9004 0x00000000  # actual addr: 0x2401
write_reg 0x8004 0x00000000  # actual addr: 0x2001
write_reg 0x8008 0x00000001  # actual addr: 0x2002
write_reg 0x9038 0x00000001  # actual addr: 0x240e
write_reg 0x7004 0x00000000  # actual addr: 0x1c01
write_reg 0x5004 0x00000000  # actual addr: 0x1401
write_reg 0x6004 0x00000000  # actual addr: 0x1801
write_reg 0x4004 0x00000000  # actual addr: 0x1001
write_reg 0x3004 0x00000000  # actual addr: 0x0c01
read_reg 0x300c 0xffffffff 0x00000001  # actual addr: 0x0c03
write_reg 0x7008 0x00000001  # actual addr: 0x1c02
write_reg 0x5008 0x00000001  # actual addr: 0x1402
write_reg 0x6008 0x00000001  # actual addr: 0x1802
write_reg 0x4008 0x00000001  # actual addr: 0x1002
write_reg 0x3010 0x00000001  # actual addr: 0x0c04
read_reg 0x9004 0xffffffff 0x00000000  # actual addr: 0x2401
read_reg 0x8004 0xffffffff 0x00000000  # actual addr: 0x2001
write_reg 0x9004 0x00000001  # actual addr: 0x2401
write_reg 0x8004 0x00000001  # actual addr: 0x2001
read_reg 0x1004 0xffffffff 0x00000000  # actual addr: 0x0401
write_reg 0x1004 0x00000000  # actual addr: 0x0401
write_reg 0x8070 0x00000000  # actual addr: 0x201c
write_reg 0x8028 0x00000000  # actual addr: 0x200a
write_reg 0x8040 0x00000000  # actual addr: 0x2010
write_reg 0x8058 0x00000000  # actual addr: 0x2016
write_reg 0x8070 0x00000001  # actual addr: 0x201c
write_reg 0x800c 0x00000037  # actual addr: 0x2003
write_reg 0x8010 0x00000018  # actual addr: 0x2004
write_reg 0x8014 0x0000003f  # actual addr: 0x2005
write_reg 0x8028 0x0000002a  # actual addr: 0x200a
write_reg 0x802c 0xc400c000  # actual addr: 0x200b
write_reg 0x8030 0x00000000  # actual addr: 0x200c
write_reg 0x8034 0x00000010  # actual addr: 0x200d
write_reg 0x8038 0x00000010  # actual addr: 0x200e
write_reg 0x8040 0x00000031  # actual addr: 0x2010
write_reg 0x8058 0x00000031  # actual addr: 0x2016
write_reg 0x903c 0x00000037  # actual addr: 0x240f
write_reg 0x9040 0x00000018  # actual addr: 0x2410
write_reg 0x9044 0x0000003f  # actual addr: 0x2411
write_reg 0x904c 0x00000000  # actual addr: 0x2413
write_reg 0x9048 0xc1183640  # actual addr: 0x2412
write_reg 0x9050 0x000001c0  # actual addr: 0x2414
write_reg 0x9054 0x00006200  # actual addr: 0x2415
write_reg 0x9058 0x00000018  # actual addr: 0x2416
write_reg 0x905c 0x00000101  # actual addr: 0x2417
write_reg 0x9064 0x00000001  # actual addr: 0x2419
write_reg 0x906c 0x00000053  # actual addr: 0x241b
write_reg 0x9080 0x00000053  # actual addr: 0x2420
write_reg 0x90b0 0x00000001  # actual addr: 0x242c
write_reg 0x90b4 0x00000001  # actual addr: 0x242d
write_reg 0x90bc 0x00000000  # actual addr: 0x242f
write_reg 0x90c0 0x00000000  # actual addr: 0x2430
write_reg 0x90c4 0x00006e33  # actual addr: 0x2431
write_reg 0x90c8 0x00000018  # actual addr: 0x2432
write_reg 0x9004 0x00000001  # actual addr: 0x2401
write_reg 0x8004 0x00000001  # actual addr: 0x2001
write_reg 0x8008 0x00000001  # actual addr: 0x2002
write_reg 0x9038 0x00000001  # actual addr: 0x240e
write_reg 0x7004 0x00000001  # actual addr: 0x1c01
write_reg 0x5004 0x00000001  # actual addr: 0x1401
write_reg 0x6004 0x00000001  # actual addr: 0x1801
write_reg 0x4004 0x00000001  # actual addr: 0x1001
write_reg 0x3004 0x00000001  # actual addr: 0x0c01
read_reg 0x300c 0xffffffff 0x00000001  # actual addr: 0x0c03
write_reg 0x7008 0x00000001  # actual addr: 0x1c02
write_reg 0x5008 0x00000001  # actual addr: 0x1402
write_reg 0x6008 0x00000001  # actual addr: 0x1802
write_reg 0x4008 0x00000001  # actual addr: 0x1002
write_reg 0x3010 0x00000001  # actual addr: 0x0c04
read_reg 0x1004 0xffffffff 0x00000000  # actual addr: 0x0401
read_reg 0x100c 0xffffffff 0x003f0003  # actual addr: 0x0403
write_reg 0x100c 0x003f0003  # actual addr: 0x0403
read_reg 0x1004 0xffffffff 0x00000000  # actual addr: 0x0401
read_reg 0x100c 0xffffffff 0x00000000  # actual addr: 0x0403
read_reg 0x7004 0xffffffff 0x00000001  # actual addr: 0x1c01
write_reg 0x7004 0x00000000  # actual addr: 0x1c01
write_reg 0x5004 0x00000000  # actual addr: 0x1401
write_reg 0x6004 0x00000000  # actual addr: 0x1801
write_reg 0x4004 0x00000000  # actual addr: 0x1001
write_reg 0x3004 0x00000000  # actual addr: 0x0c01
read_reg 0x7000 0xffffffff 0x00000000  # actual addr: 0x1c00
read_reg 0x5000 0xffffffff 0x00000000  # actual addr: 0x1400
read_reg 0x6000 0xffffffff 0x00000000  # actual addr: 0x1800
read_reg 0x4000 0xffffffff 0x00000000  # actual addr: 0x1000
read_reg 0x3000 0xffffffff 0x00000000  # actual addr: 0x0c00
write_reg 0x700c 0x00000000  # actual addr: 0x1c03
write_reg 0x7010 0x001f0037  # actual addr: 0x1c04
write_reg 0x7014 0x000000ff  # actual addr: 0x1c05
write_reg 0x7018 0x00000000  # actual addr: 0x1c06
write_reg 0x701c 0x00000000  # actual addr: 0x1c07
write_reg 0x7020 0x000001c0  # actual addr: 0x1c08
write_reg 0x7024 0x00003800  # actual addr: 0x1c09
write_reg 0x7028 0x00000000  # actual addr: 0x1c0a
write_reg 0x702c 0x00000000  # actual addr: 0x1c0b
write_reg 0x500c 0x00000000  # actual addr: 0x1403
write_reg 0x600c 0x00000000  # actual addr: 0x1803
write_reg 0x400c 0x10000000  # actual addr: 0x1003
write_reg 0x4010 0x00000000  # actual addr: 0x1004
write_reg 0x4014 0x001f0037  # actual addr: 0x1005
write_reg 0x4018 0x0000003f  # actual addr: 0x1006
write_reg 0x401c 0x00000000  # actual addr: 0x1007
write_reg 0x4020 0x00000000  # actual addr: 0x1008
write_reg 0x4024 0x000001bf  # actual addr: 0x1009
write_reg 0x4028 0x00000000  # actual addr: 0x100a
write_reg 0x402c 0x00000000  # actual addr: 0x100b
write_reg 0x4030 0x00ff003f  # actual addr: 0x100c
write_reg 0x4034 0x00004000  # actual addr: 0x100d
write_reg 0x4038 0x00000000  # actual addr: 0x100e
write_reg 0x403c 0x001f0037  # actual addr: 0x100f
write_reg 0x4040 0x000000ff  # actual addr: 0x1010
write_reg 0x4044 0x000006ff  # actual addr: 0x1011
write_reg 0x4048 0x0000001f  # actual addr: 0x1012
write_reg 0x404c 0x00000000  # actual addr: 0x1013
write_reg 0x4050 0x00000000  # actual addr: 0x1014
write_reg 0x4054 0x00000000  # actual addr: 0x1015
write_reg 0x4058 0x00000000  # actual addr: 0x1016
write_reg 0x405c 0x0003001b  # actual addr: 0x1017
write_reg 0x4060 0x00000000  # actual addr: 0x1018
write_reg 0x3014 0x10000000  # actual addr: 0x0c05
write_reg 0x3018 0x00100000  # actual addr: 0x0c06
write_reg 0x301c 0x001f0037  # actual addr: 0x0c07
write_reg 0x3020 0x0000003f  # actual addr: 0x0c08
write_reg 0x3024 0x001f0037  # actual addr: 0x0c09
write_reg 0x302c 0x00000001  # actual addr: 0x0c0b
write_reg 0x3030 0x00000000  # actual addr: 0x0c0c
write_reg 0x3034 0xc1180000  # actual addr: 0x0c0d
write_reg 0x3038 0x00000000  # actual addr: 0x0c0e
write_reg 0x303c 0xc1180000  # actual addr: 0x0c0f
write_reg 0x3040 0x000001c0  # actual addr: 0x0c10
write_reg 0x3048 0x00006200  # actual addr: 0x0c12
write_reg 0x3044 0x00000000  # actual addr: 0x0c11
write_reg 0x304c 0x00000001  # actual addr: 0x0c13
write_reg 0x3058 0x00000000  # actual addr: 0x0c16
write_reg 0x305c 0x00000000  # actual addr: 0x0c17
write_reg 0x3060 0x000001bf  # actual addr: 0x0c18
write_reg 0x3064 0x00000000  # actual addr: 0x0c19
write_reg 0x3068 0x00000000  # actual addr: 0x0c1a
write_reg 0x306c 0x0000003f  # actual addr: 0x0c1b
write_reg 0x3070 0x000000ff  # actual addr: 0x0c1c
write_reg 0x3074 0x00000001  # actual addr: 0x0c1d
write_reg 0x3078 0x00000000  # actual addr: 0x0c1e
write_reg 0x307c 0xc4020000  # actual addr: 0x0c1f
write_reg 0x3080 0x00004000  # actual addr: 0x0c20
write_reg 0x3098 0x00000000  # actual addr: 0x0c26
write_reg 0x30a4 0x00000001  # actual addr: 0x0c29
write_reg 0x30a8 0x00000000  # actual addr: 0x0c2a
write_reg 0x30ac 0x00000001  # actual addr: 0x0c2b
write_reg 0x30b0 0x00000000  # actual addr: 0x0c2c
write_reg 0x30b4 0x00000000  # actual addr: 0x0c2d
write_reg 0x30b8 0x00000000  # actual addr: 0x0c2e
write_reg 0x30bc 0x0003001b  # actual addr: 0x0c2f
read_reg 0x7004 0xffffffff 0x00000000  # actual addr: 0x1c01
write_reg 0x7004 0x00000001  # actual addr: 0x1c01
write_reg 0x5004 0x00000001  # actual addr: 0x1401
write_reg 0x6004 0x00000001  # actual addr: 0x1801
write_reg 0x4004 0x00000001  # actual addr: 0x1001
write_reg 0x3004 0x00000001  # actual addr: 0x0c01
read_reg 0x7000 0xffffffff 0x00000000  # actual addr: 0x1c00
read_reg 0x5000 0xffffffff 0x00000000  # actual addr: 0x1400
read_reg 0x6000 0xffffffff 0x00000000  # actual addr: 0x1800
read_reg 0x4000 0xffffffff 0x00000000  # actual addr: 0x1000
read_reg 0x3000 0xffffffff 0x00000000  # actual addr: 0x0c00
write_reg 0x700c 0x00000000  # actual addr: 0x1c03
write_reg 0x7010 0x00170037  # actual addr: 0x1c04
write_reg 0x7014 0x000000ff  # actual addr: 0x1c05
write_reg 0x7018 0x00000000  # actual addr: 0x1c06
write_reg 0x701c 0x00000000  # actual addr: 0x1c07
write_reg 0x7020 0x000001c0  # actual addr: 0x1c08
write_reg 0x7024 0x00002a00  # actual addr: 0x1c09
write_reg 0x7028 0x00000000  # actual addr: 0x1c0a
write_reg 0x702c 0x00000000  # actual addr: 0x1c0b
write_reg 0x500c 0x00000000  # actual addr: 0x1403
write_reg 0x600c 0x00000000  # actual addr: 0x1803
write_reg 0x400c 0x00100000  # actual addr: 0x1003
write_reg 0x4010 0x00000000  # actual addr: 0x1004
write_reg 0x4014 0x00170037  # actual addr: 0x1005
write_reg 0x4018 0x0000003f  # actual addr: 0x1006
write_reg 0x401c 0x00000000  # actual addr: 0x1007
write_reg 0x4020 0x00000000  # actual addr: 0x1008
write_reg 0x4024 0x000001bf  # actual addr: 0x1009
write_reg 0x4028 0x00000000  # actual addr: 0x100a
write_reg 0x402c 0x00000000  # actual addr: 0x100b
write_reg 0x4030 0x00ff003f  # actual addr: 0x100c
write_reg 0x4034 0x00004000  # actual addr: 0x100d
write_reg 0x4038 0x00000000  # actual addr: 0x100e
write_reg 0x403c 0x00170037  # actual addr: 0x100f
write_reg 0x4040 0x000000ff  # actual addr: 0x1010
write_reg 0x4044 0x0000053f  # actual addr: 0x1011
write_reg 0x4048 0x00000017  # actual addr: 0x1012
write_reg 0x404c 0x00000000  # actual addr: 0x1013
write_reg 0x4050 0x00000000  # actual addr: 0x1014
write_reg 0x4054 0x00000000  # actual addr: 0x1015
write_reg 0x4058 0x00000000  # actual addr: 0x1016
write_reg 0x405c 0x0003001b  # actual addr: 0x1017
write_reg 0x4060 0x00000000  # actual addr: 0x1018
write_reg 0x3014 0x00100000  # actual addr: 0x0c05
write_reg 0x3018 0x00100000  # actual addr: 0x0c06
write_reg 0x301c 0x00170037  # actual addr: 0x0c07
write_reg 0x3020 0x0000003f  # actual addr: 0x0c08
write_reg 0x3024 0x00170037  # actual addr: 0x0c09
write_reg 0x302c 0x00000001  # actual addr: 0x0c0b
write_reg 0x3030 0x00000000  # actual addr: 0x0c0c
write_reg 0x3034 0xc1183800  # actual addr: 0x0c0d
write_reg 0x3038 0x00000000  # actual addr: 0x0c0e
write_reg 0x303c 0xc1183800  # actual addr: 0x0c0f
write_reg 0x3040 0x000001c0  # actual addr: 0x0c10
write_reg 0x3048 0x00006200  # actual addr: 0x0c12
write_reg 0x3044 0x00000000  # actual addr: 0x0c11
write_reg 0x304c 0x00000001  # actual addr: 0x0c13
write_reg 0x3058 0x00000000  # actual addr: 0x0c16
write_reg 0x305c 0x00000000  # actual addr: 0x0c17
write_reg 0x3060 0x000001bf  # actual addr: 0x0c18
write_reg 0x3064 0x00000000  # actual addr: 0x0c19
write_reg 0x3068 0x00000000  # actual addr: 0x0c1a
write_reg 0x306c 0x0000003f  # actual addr: 0x0c1b
write_reg 0x3070 0x000000ff  # actual addr: 0x0c1c
write_reg 0x3074 0x00000001  # actual addr: 0x0c1d
write_reg 0x3078 0x00000000  # actual addr: 0x0c1e
write_reg 0x307c 0xc4020000  # actual addr: 0x0c1f
write_reg 0x3080 0x00004000  # actual addr: 0x0c20
write_reg 0x3098 0x00000000  # actual addr: 0x0c26
write_reg 0x30a4 0x00000000  # actual addr: 0x0c29
write_reg 0x30b0 0x00000000  # actual addr: 0x0c2c
write_reg 0x30b4 0x00000000  # actual addr: 0x0c2d
write_reg 0x30b8 0x00000000  # actual addr: 0x0c2e
write_reg 0x30bc 0x0003001b  # actual addr: 0x0c2f
read_reg 0x9004 0xffffffff 0x00000001  # actual addr: 0x2401
read_reg 0x8004 0xffffffff 0x00000001  # actual addr: 0x2001
write_reg 0x9004 0x00000000  # actual addr: 0x2401
write_reg 0x8004 0x00000000  # actual addr: 0x2001
read_reg 0x1004 0xffffffff 0x00000000  # actual addr: 0x0401
write_reg 0x1004 0x00000000  # actual addr: 0x0401
write_reg 0x8070 0x00000000  # actual addr: 0x201c
write_reg 0x8028 0x00000000  # actual addr: 0x200a
write_reg 0x8040 0x00000000  # actual addr: 0x2010
write_reg 0x8058 0x00000000  # actual addr: 0x2016
write_reg 0x8070 0x00000001  # actual addr: 0x201c
write_reg 0x800c 0x00000037  # actual addr: 0x2003
write_reg 0x8010 0x0000001f  # actual addr: 0x2004
write_reg 0x8014 0x000000ff  # actual addr: 0x2005
write_reg 0x8028 0x0000002a  # actual addr: 0x200a
write_reg 0x802c 0xc400d000  # actual addr: 0x200b
write_reg 0x8030 0x00000000  # actual addr: 0x200c
write_reg 0x8034 0x00000010  # actual addr: 0x200d
write_reg 0x8038 0x00000010  # actual addr: 0x200e
write_reg 0x8040 0x00000031  # actual addr: 0x2010
write_reg 0x8058 0x00000031  # actual addr: 0x2016
write_reg 0x903c 0x00000037  # actual addr: 0x240f
write_reg 0x9040 0x0000001f  # actual addr: 0x2410
write_reg 0x9044 0x000000ff  # actual addr: 0x2411
write_reg 0x904c 0x00000000  # actual addr: 0x2413
write_reg 0x9048 0xc1300000  # actual addr: 0x2412
write_reg 0x9050 0x000001c0  # actual addr: 0x2414
write_reg 0x9054 0x00006200  # actual addr: 0x2415
write_reg 0x9058 0x00000058  # actual addr: 0x2416
write_reg 0x905c 0x00000001  # actual addr: 0x2417
write_reg 0x9064 0x00000001  # actual addr: 0x2419
write_reg 0x906c 0x00000053  # actual addr: 0x241b
write_reg 0x9080 0x00000053  # actual addr: 0x2420
write_reg 0x90b0 0x00000001  # actual addr: 0x242c
write_reg 0x90b4 0x00000001  # actual addr: 0x242d
write_reg 0x90bc 0x00000000  # actual addr: 0x242f
write_reg 0x90c0 0x00000000  # actual addr: 0x2430
write_reg 0x90c4 0x00004baf  # actual addr: 0x2431
write_reg 0x90c8 0x00000014  # actual addr: 0x2432
write_reg 0x9004 0x00000000  # actual addr: 0x2401
write_reg 0x8004 0x00000000  # actual addr: 0x2001
write_reg 0x8008 0x00000001  # actual addr: 0x2002
write_reg 0x9038 0x00000001  # actual addr: 0x240e
write_reg 0x7004 0x00000000  # actual addr: 0x1c01
write_reg 0x5004 0x00000000  # actual addr: 0x1401
write_reg 0x6004 0x00000000  # actual addr: 0x1801
write_reg 0x4004 0x00000000  # actual addr: 0x1001
write_reg 0x3004 0x00000000  # actual addr: 0x0c01
read_reg 0x300c 0xffffffff 0x00000001  # actual addr: 0x0c03
write_reg 0x7008 0x00000001  # actual addr: 0x1c02
write_reg 0x5008 0x00000001  # actual addr: 0x1402
write_reg 0x6008 0x00000001  # actual addr: 0x1802
write_reg 0x4008 0x00000001  # actual addr: 0x1002
write_reg 0x3010 0x00000001  # actual addr: 0x0c04
read_reg 0x9004 0xffffffff 0x00000000  # actual addr: 0x2401
read_reg 0x8004 0xffffffff 0x00000000  # actual addr: 0x2001
write_reg 0x9004 0x00000001  # actual addr: 0x2401
write_reg 0x8004 0x00000001  # actual addr: 0x2001
read_reg 0x1004 0xffffffff 0x00000000  # actual addr: 0x0401
write_reg 0x1004 0x00000000  # actual addr: 0x0401
write_reg 0x8070 0x00000000  # actual addr: 0x201c
write_reg 0x8028 0x00000000  # actual addr: 0x200a
write_reg 0x8040 0x00000000  # actual addr: 0x2010
write_reg 0x8058 0x00000000  # actual addr: 0x2016
write_reg 0x8070 0x00000001  # actual addr: 0x201c
write_reg 0x800c 0x00000037  # actual addr: 0x2003
write_reg 0x8010 0x00000017  # actual addr: 0x2004
write_reg 0x8014 0x000000ff  # actual addr: 0x2005
write_reg 0x8028 0x0000002a  # actual addr: 0x200a
write_reg 0x802c 0xc400d000  # actual addr: 0x200b
write_reg 0x8030 0x00000000  # actual addr: 0x200c
write_reg 0x8034 0x00000010  # actual addr: 0x200d
write_reg 0x8038 0x00000010  # actual addr: 0x200e
write_reg 0x8040 0x00000031  # actual addr: 0x2010
write_reg 0x8058 0x00000031  # actual addr: 0x2016
write_reg 0x903c 0x00000037  # actual addr: 0x240f
write_reg 0x9040 0x00000017  # actual addr: 0x2410
write_reg 0x9044 0x000000ff  # actual addr: 0x2411
write_reg 0x904c 0x00000000  # actual addr: 0x2413
write_reg 0x9048 0xc1303800  # actual addr: 0x2412
write_reg 0x9050 0x000001c0  # actual addr: 0x2414
write_reg 0x9054 0x00006200  # actual addr: 0x2415
write_reg 0x9058 0x00000058  # actual addr: 0x2416
write_reg 0x905c 0x00000001  # actual addr: 0x2417
write_reg 0x9064 0x00000001  # actual addr: 0x2419
write_reg 0x906c 0x00000053  # actual addr: 0x241b
write_reg 0x9080 0x00000053  # actual addr: 0x2420
write_reg 0x90b0 0x00000001  # actual addr: 0x242c
write_reg 0x90b4 0x00000001  # actual addr: 0x242d
write_reg 0x90bc 0x00000000  # actual addr: 0x242f
write_reg 0x90c0 0x00000000  # actual addr: 0x2430
write_reg 0x90c4 0x00004baf  # actual addr: 0x2431
write_reg 0x90c8 0x00000014  # actual addr: 0x2432
write_reg 0x9004 0x00000001  # actual addr: 0x2401
write_reg 0x8004 0x00000001  # actual addr: 0x2001
write_reg 0x8008 0x00000001  # actual addr: 0x2002
write_reg 0x9038 0x00000001  # actual addr: 0x240e
write_reg 0x7004 0x00000001  # actual addr: 0x1c01
write_reg 0x5004 0x00000001  # actual addr: 0x1401
write_reg 0x6004 0x00000001  # actual addr: 0x1801
write_reg 0x4004 0x00000001  # actual addr: 0x1001
write_reg 0x3004 0x00000001  # actual addr: 0x0c01
read_reg 0x300c 0xffffffff 0x00000001  # actual addr: 0x0c03
write_reg 0x7008 0x00000001  # actual addr: 0x1c02
write_reg 0x5008 0x00000001  # actual addr: 0x1402
write_reg 0x6008 0x00000001  # actual addr: 0x1802
write_reg 0x4008 0x00000001  # actual addr: 0x1002
write_reg 0x3010 0x00000001  # actual addr: 0x0c04
read_reg 0x1004 0xffffffff 0x00000000  # actual addr: 0x0401
read_reg 0x100c 0xffffffff 0x003f0003  # actual addr: 0x0403
write_reg 0x100c 0x003f0003  # actual addr: 0x0403
read_reg 0x1004 0xffffffff 0x00000000  # actual addr: 0x0401
read_reg 0x100c 0xffffffff 0x00000000  # actual addr: 0x0403
read_reg 0x7004 0xffffffff 0x00000001  # actual addr: 0x1c01
write_reg 0x7004 0x00000000  # actual addr: 0x1c01
write_reg 0x5004 0x00000000  # actual addr: 0x1401
write_reg 0x6004 0x00000000  # actual addr: 0x1801
write_reg 0x4004 0x00000000  # actual addr: 0x1001
write_reg 0x3004 0x00000000  # actual addr: 0x0c01
read_reg 0x7000 0xffffffff 0x00000000  # actual addr: 0x1c00
read_reg 0x5000 0xffffffff 0x00000000  # actual addr: 0x1400
read_reg 0x6000 0xffffffff 0x00000000  # actual addr: 0x1800
read_reg 0x4000 0xffffffff 0x00000000  # actual addr: 0x1000
read_reg 0x3000 0xffffffff 0x00000000  # actual addr: 0x0c00
write_reg 0x700c 0x00000000  # actual addr: 0x1c03
write_reg 0x7010 0x00070037  # actual addr: 0x1c04
write_reg 0x7014 0x0000003f  # actual addr: 0x1c05
write_reg 0x7018 0x00000000  # actual addr: 0x1c06
write_reg 0x701c 0x00000000  # actual addr: 0x1c07
write_reg 0x7020 0x000001c0  # actual addr: 0x1c08
write_reg 0x7024 0x00000e00  # actual addr: 0x1c09
write_reg 0x7028 0x00000000  # actual addr: 0x1c0a
write_reg 0x702c 0x00000000  # actual addr: 0x1c0b
write_reg 0x500c 0x00000000  # actual addr: 0x1403
write_reg 0x600c 0x00000000  # actual addr: 0x1803
write_reg 0x400c 0x10000000  # actual addr: 0x1003
write_reg 0x4010 0x00000000  # actual addr: 0x1004
write_reg 0x4014 0x00070037  # actual addr: 0x1005
write_reg 0x4018 0x000000ff  # actual addr: 0x1006
write_reg 0x401c 0x00000000  # actual addr: 0x1007
write_reg 0x4020 0x00000000  # actual addr: 0x1008
write_reg 0x4024 0x000006ff  # actual addr: 0x1009
write_reg 0x4028 0x00000000  # actual addr: 0x100a
write_reg 0x402c 0x00000000  # actual addr: 0x100b
write_reg 0x4030 0x003f00ff  # actual addr: 0x100c
write_reg 0x4034 0x00004000  # actual addr: 0x100d
write_reg 0x4038 0x00000000  # actual addr: 0x100e
write_reg 0x403c 0x00070037  # actual addr: 0x100f
write_reg 0x4040 0x0000003f  # actual addr: 0x1010
write_reg 0x4044 0x000001bf  # actual addr: 0x1011
write_reg 0x4048 0x00000007  # actual addr: 0x1012
write_reg 0x404c 0x00000000  # actual addr: 0x1013
write_reg 0x4050 0x00000000  # actual addr: 0x1014
write_reg 0x4054 0x00000000  # actual addr: 0x1015
write_reg 0x4058 0x00000000  # actual addr: 0x1016
write_reg 0x405c 0x0003001b  # actual addr: 0x1017
write_reg 0x4060 0x00000000  # actual addr: 0x1018
write_reg 0x3014 0x10000000  # actual addr: 0x0c05
write_reg 0x3018 0x00100000  # actual addr: 0x0c06
write_reg 0x301c 0x00070037  # actual addr: 0x0c07
write_reg 0x3020 0x000000ff  # actual addr: 0x0c08
write_reg 0x3024 0x00070037  # actual addr: 0x0c09
write_reg 0x302c 0x00000001  # actual addr: 0x0c0b
write_reg 0x3030 0x00000000  # actual addr: 0x0c0c
write_reg 0x3034 0xc1400000  # actual addr: 0x0c0d
write_reg 0x3038 0x00000000  # actual addr: 0x0c0e
write_reg 0x303c 0xc1400000  # actual addr: 0x0c0f
write_reg 0x3040 0x000001c0  # actual addr: 0x0c10
write_reg 0x3048 0x00006200  # actual addr: 0x0c12
write_reg 0x3044 0x00000000  # actual addr: 0x0c11
write_reg 0x304c 0x00000001  # actual addr: 0x0c13
write_reg 0x3058 0x00000000  # actual addr: 0x0c16
write_reg 0x305c 0x00000000  # actual addr: 0x0c17
write_reg 0x3060 0x000006ff  # actual addr: 0x0c18
write_reg 0x3064 0x00000000  # actual addr: 0x0c19
write_reg 0x3068 0x00000000  # actual addr: 0x0c1a
write_reg 0x306c 0x000000ff  # actual addr: 0x0c1b
write_reg 0x3070 0x0000003f  # actual addr: 0x0c1c
write_reg 0x3074 0x00000001  # actual addr: 0x0c1d
write_reg 0x3078 0x00000000  # actual addr: 0x0c1e
write_reg 0x307c 0xc4024000  # actual addr: 0x0c1f
write_reg 0x3080 0x00004000  # actual addr: 0x0c20
write_reg 0x3098 0x00000000  # actual addr: 0x0c26
write_reg 0x30a4 0x00000001  # actual addr: 0x0c29
write_reg 0x30a8 0x00000000  # actual addr: 0x0c2a
write_reg 0x30ac 0x00000001  # actual addr: 0x0c2b
write_reg 0x30b0 0x00000000  # actual addr: 0x0c2c
write_reg 0x30b4 0x00000000  # actual addr: 0x0c2d
write_reg 0x30b8 0x00000000  # actual addr: 0x0c2e
write_reg 0x30bc 0x0003001b  # actual addr: 0x0c2f
read_reg 0x7004 0xffffffff 0x00000000  # actual addr: 0x1c01
write_reg 0x7004 0x00000001  # actual addr: 0x1c01
write_reg 0x5004 0x00000001  # actual addr: 0x1401
write_reg 0x6004 0x00000001  # actual addr: 0x1801
write_reg 0x4004 0x00000001  # actual addr: 0x1001
write_reg 0x3004 0x00000001  # actual addr: 0x0c01
read_reg 0x7000 0xffffffff 0x00000000  # actual addr: 0x1c00
read_reg 0x5000 0xffffffff 0x00000000  # actual addr: 0x1400
read_reg 0x6000 0xffffffff 0x00000000  # actual addr: 0x1800
read_reg 0x4000 0xffffffff 0x00000000  # actual addr: 0x1000
read_reg 0x3000 0xffffffff 0x00000000  # actual addr: 0x0c00
write_reg 0x700c 0x00000000  # actual addr: 0x1c03
write_reg 0x7010 0x00070037  # actual addr: 0x1c04
write_reg 0x7014 0x0000003f  # actual addr: 0x1c05
write_reg 0x7018 0x00000000  # actual addr: 0x1c06
write_reg 0x701c 0x00000000  # actual addr: 0x1c07
write_reg 0x7020 0x000001c0  # actual addr: 0x1c08
write_reg 0x7024 0x00000e00  # actual addr: 0x1c09
write_reg 0x7028 0x00000000  # actual addr: 0x1c0a
write_reg 0x702c 0x00000000  # actual addr: 0x1c0b
write_reg 0x500c 0x00000000  # actual addr: 0x1403
write_reg 0x600c 0x00000000  # actual addr: 0x1803
write_reg 0x400c 0x10100000  # actual addr: 0x1003
write_reg 0x4010 0x00000000  # actual addr: 0x1004
write_reg 0x4014 0x00070037  # actual addr: 0x1005
write_reg 0x4018 0x000000ff  # actual addr: 0x1006
write_reg 0x401c 0x00000000  # actual addr: 0x1007
write_reg 0x4020 0x00000000  # actual addr: 0x1008
write_reg 0x4024 0x000006ff  # actual addr: 0x1009
write_reg 0x4028 0x00000000  # actual addr: 0x100a
write_reg 0x402c 0x00000000  # actual addr: 0x100b
write_reg 0x4030 0x003f00ff  # actual addr: 0x100c
write_reg 0x4034 0x00004000  # actual addr: 0x100d
write_reg 0x4038 0x00000000  # actual addr: 0x100e
write_reg 0x403c 0x00070037  # actual addr: 0x100f
write_reg 0x4040 0x0000003f  # actual addr: 0x1010
write_reg 0x4044 0x000001bf  # actual addr: 0x1011
write_reg 0x4048 0x00000007  # actual addr: 0x1012
write_reg 0x404c 0x00000000  # actual addr: 0x1013
write_reg 0x4050 0x00000000  # actual addr: 0x1014
write_reg 0x4054 0x00000000  # actual addr: 0x1015
write_reg 0x4058 0x00000000  # actual addr: 0x1016
write_reg 0x405c 0x0003001b  # actual addr: 0x1017
write_reg 0x4060 0x00000000  # actual addr: 0x1018
write_reg 0x3014 0x10100000  # actual addr: 0x0c05
write_reg 0x3018 0x00100000  # actual addr: 0x0c06
write_reg 0x301c 0x00070037  # actual addr: 0x0c07
write_reg 0x3020 0x000000ff  # actual addr: 0x0c08
write_reg 0x3024 0x00070037  # actual addr: 0x0c09
write_reg 0x302c 0x00000001  # actual addr: 0x0c0b
write_reg 0x3030 0x00000000  # actual addr: 0x0c0c
write_reg 0x3034 0xc1400e00  # actual addr: 0x0c0d
write_reg 0x3038 0x00000000  # actual addr: 0x0c0e
write_reg 0x303c 0xc1400e00  # actual addr: 0x0c0f
write_reg 0x3040 0x000001c0  # actual addr: 0x0c10
write_reg 0x3048 0x00006200  # actual addr: 0x0c12
write_reg 0x3044 0x00000000  # actual addr: 0x0c11
write_reg 0x304c 0x00000001  # actual addr: 0x0c13
write_reg 0x3058 0x00000000  # actual addr: 0x0c16
write_reg 0x305c 0x00000000  # actual addr: 0x0c17
write_reg 0x3060 0x000006ff  # actual addr: 0x0c18
write_reg 0x3064 0x00000000  # actual addr: 0x0c19
write_reg 0x3068 0x00000000  # actual addr: 0x0c1a
write_reg 0x306c 0x000000ff  # actual addr: 0x0c1b
write_reg 0x3070 0x0000003f  # actual addr: 0x0c1c
write_reg 0x3074 0x00000001  # actual addr: 0x0c1d
write_reg 0x3078 0x00000000  # actual addr: 0x0c1e
write_reg 0x307c 0xc4024000  # actual addr: 0x0c1f
write_reg 0x3080 0x00004000  # actual addr: 0x0c20
write_reg 0x3098 0x00000000  # actual addr: 0x0c26
write_reg 0x30a4 0x00000000  # actual addr: 0x0c29
write_reg 0x30b0 0x00000000  # actual addr: 0x0c2c
write_reg 0x30b4 0x00000000  # actual addr: 0x0c2d
write_reg 0x30b8 0x00000000  # actual addr: 0x0c2e
write_reg 0x30bc 0x0003001b  # actual addr: 0x0c2f
read_reg 0x9004 0xffffffff 0x00000001  # actual addr: 0x2401
read_reg 0x8004 0xffffffff 0x00000001  # actual addr: 0x2001
write_reg 0x9004 0x00000000  # actual addr: 0x2401
write_reg 0x8004 0x00000000  # actual addr: 0x2001
read_reg 0x1004 0xffffffff 0x00000000  # actual addr: 0x0401
write_reg 0x1004 0x00000000  # actual addr: 0x0401
write_reg 0x8070 0x00000000  # actual addr: 0x201c
write_reg 0x8028 0x00000000  # actual addr: 0x200a
write_reg 0x8040 0x00000000  # actual addr: 0x2010
write_reg 0x8058 0x00000000  # actual addr: 0x2016
write_reg 0x8070 0x00000000  # actual addr: 0x201c
write_reg 0x800c 0x00000037  # actual addr: 0x2003
write_reg 0x8010 0x00000037  # actual addr: 0x2004
write_reg 0x8014 0x000000ff  # actual addr: 0x2005
write_reg 0x8018 0xc1200000  # actual addr: 0x2006
write_reg 0x801c 0x00000000  # actual addr: 0x2007
write_reg 0x8020 0x000001c0  # actual addr: 0x2008
write_reg 0x8024 0x00006200  # actual addr: 0x2009
write_reg 0x8074 0x00000001  # actual addr: 0x201d
write_reg 0x8028 0x00000032  # actual addr: 0x200a
write_reg 0x802c 0xc1300000  # actual addr: 0x200b
write_reg 0x8030 0x00000000  # actual addr: 0x200c
write_reg 0x8034 0x000001c0  # actual addr: 0x200d
write_reg 0x8038 0x00006200  # actual addr: 0x200e
write_reg 0x8040 0x00000031  # actual addr: 0x2010
write_reg 0x8058 0x00000031  # actual addr: 0x2016
write_reg 0x903c 0x00000037  # actual addr: 0x240f
write_reg 0x9040 0x00000037  # actual addr: 0x2410
write_reg 0x9044 0x000000ff  # actual addr: 0x2411
write_reg 0x904c 0x00000000  # actual addr: 0x2413
write_reg 0x9048 0xc1400000  # actual addr: 0x2412
write_reg 0x9050 0x000001c0  # actual addr: 0x2414
write_reg 0x9054 0x00006200  # actual addr: 0x2415
write_reg 0x9058 0x00000018  # actual addr: 0x2416
write_reg 0x905c 0x00000001  # actual addr: 0x2417
write_reg 0x9064 0x00000001  # actual addr: 0x2419
write_reg 0x906c 0x00000053  # actual addr: 0x241b
write_reg 0x9080 0x00000053  # actual addr: 0x2420
write_reg 0x90b0 0x00000000  # actual addr: 0x242c
write_reg 0x90b4 0x00000001  # actual addr: 0x242d
write_reg 0x90bc 0x00000000  # actual addr: 0x242f
write_reg 0x90c0 0x00000000  # actual addr: 0x2430
write_reg 0x90c4 0x00005222  # actual addr: 0x2431
write_reg 0x90c8 0x0000000e  # actual addr: 0x2432
write_reg 0x9004 0x00000000  # actual addr: 0x2401
write_reg 0x8004 0x00000000  # actual addr: 0x2001
write_reg 0x8008 0x00000001  # actual addr: 0x2002
write_reg 0x9038 0x00000001  # actual addr: 0x240e
read_reg 0x9004 0xffffffff 0x00000000  # actual addr: 0x2401
read_reg 0x8004 0xffffffff 0x00000000  # actual addr: 0x2001
write_reg 0x9004 0x00000001  # actual addr: 0x2401
write_reg 0x8004 0x00000001  # actual addr: 0x2001
read_reg 0x1004 0xffffffff 0x00000000  # actual addr: 0x0401
write_reg 0x1004 0x00000000  # actual addr: 0x0401
write_reg 0x8070 0x00000000  # actual addr: 0x201c
write_reg 0x8028 0x00000000  # actual addr: 0x200a
write_reg 0x8040 0x00000000  # actual addr: 0x2010
write_reg 0x8058 0x00000000  # actual addr: 0x2016
write_reg 0x8070 0x00000001  # actual addr: 0x201c
write_reg 0x800c 0x00000037  # actual addr: 0x2003
write_reg 0x8010 0x00000007  # actual addr: 0x2004
write_reg 0x8014 0x0000003f  # actual addr: 0x2005
write_reg 0x8028 0x0000002a  # actual addr: 0x200a
write_reg 0x802c 0xc400e000  # actual addr: 0x200b
write_reg 0x8030 0x00000000  # actual addr: 0x200c
write_reg 0x8034 0x00000010  # actual addr: 0x200d
write_reg 0x8038 0x00000010  # actual addr: 0x200e
write_reg 0x8040 0x00000031  # actual addr: 0x2010
write_reg 0x8058 0x00000031  # actual addr: 0x2016
write_reg 0x903c 0x00000037  # actual addr: 0x240f
write_reg 0x9040 0x00000007  # actual addr: 0x2410
write_reg 0x9044 0x0000003f  # actual addr: 0x2411
