read_reg 0x9004 0xffffffff 0x00000000  # actual addr: 0x2401
write_reg 0x9004 0x00000000  # actual addr: 0x2401
write_reg 0x7004 0x00000000  # actual addr: 0x1c01
write_reg 0x8004 0x00000000  # actual addr: 0x2001
write_reg 0x6004 0x00000000  # actual addr: 0x1801
write_reg 0x5004 0x00000000  # actual addr: 0x1401
read_reg 0x9000 0xffffffff 0x00000000  # actual addr: 0x2400
read_reg 0x7000 0xffffffff 0x00000000  # actual addr: 0x1c00
read_reg 0x8000 0xffffffff 0x00000000  # actual addr: 0x2000
read_reg 0x6000 0xffffffff 0x00000000  # actual addr: 0x1800
read_reg 0x5000 0xffffffff 0x00000000  # actual addr: 0x1400
write_reg 0x900c 0x00002000  # actual addr: 0x2403
write_reg 0x9010 0x000b0036  # actual addr: 0x2404
write_reg 0x9014 0x0000005f  # actual addr: 0x2405
write_reg 0x9018 0x00000000  # actual addr: 0x2406
write_reg 0x901c 0x00000000  # actual addr: 0x2407
write_reg 0x9020 0x000006e0  # actual addr: 0x2408
write_reg 0x9024 0x00005280  # actual addr: 0x2409
write_reg 0x9028 0x00000000  # actual addr: 0x240a
write_reg 0x902c 0x00000000  # actual addr: 0x240b
write_reg 0x700c 0x00002000  # actual addr: 0x1c03
write_reg 0x800c 0x00002000  # actual addr: 0x2003
write_reg 0x600c 0x10002200  # actual addr: 0x1803
write_reg 0x6010 0x00000000  # actual addr: 0x1804
write_reg 0x6014 0x003900e2  # actual addr: 0x1805
write_reg 0x6018 0x00000002  # actual addr: 0x1806
write_reg 0x601c 0x00000000  # actual addr: 0x1807
write_reg 0x6020 0x00000000  # actual addr: 0x1808
write_reg 0x6024 0x00000038  # actual addr: 0x1809
write_reg 0x6028 0x00000000  # actual addr: 0x180a
write_reg 0x602c 0x000a000a  # actual addr: 0x180b
write_reg 0x6030 0x005f0002  # actual addr: 0x180c
write_reg 0x6034 0x00011080  # actual addr: 0x180d
write_reg 0x6038 0x00000000  # actual addr: 0x180e
write_reg 0x603c 0x000b0036  # actual addr: 0x180f
write_reg 0x6040 0x0000005f  # actual addr: 0x1810
write_reg 0x6044 0x00000293  # actual addr: 0x1811
write_reg 0x6048 0x00000039  # actual addr: 0x1812
write_reg 0x604c 0x00030003  # actual addr: 0x1813
write_reg 0x6050 0x00000000  # actual addr: 0x1814
write_reg 0x6054 0x00000000  # actual addr: 0x1815
write_reg 0x6058 0x00000000  # actual addr: 0x1816
write_reg 0x605c 0x0002000c  # actual addr: 0x1817
write_reg 0x6060 0x00000000  # actual addr: 0x1818
write_reg 0x5014 0x10002200  # actual addr: 0x1405
write_reg 0x5018 0x00100000  # actual addr: 0x1406
write_reg 0x501c 0x003900e2  # actual addr: 0x1407
write_reg 0x5020 0x00000002  # actual addr: 0x1408
write_reg 0x5024 0x003900e2  # actual addr: 0x1409
write_reg 0x502c 0x00000001  # actual addr: 0x140b
write_reg 0x5030 0x00000000  # actual addr: 0x140c
write_reg 0x5034 0xc0200000  # actual addr: 0x140d
write_reg 0x5038 0x00000000  # actual addr: 0x140e
write_reg 0x503c 0xc0200000  # actual addr: 0x140f
write_reg 0x5040 0x00001c60  # actual addr: 0x1410
write_reg 0x5048 0x00192920  # actual addr: 0x1412
write_reg 0x5044 0x00000000  # actual addr: 0x1411
write_reg 0x504c 0x00000001  # actual addr: 0x1413
write_reg 0x5058 0x00000000  # actual addr: 0x1416
write_reg 0x505c 0x00000000  # actual addr: 0x1417
write_reg 0x5060 0x00000038  # actual addr: 0x1418
write_reg 0x5064 0x00000000  # actual addr: 0x1419
write_reg 0x5068 0x00000000  # actual addr: 0x141a
write_reg 0x506c 0x000002d5  # actual addr: 0x141b
write_reg 0x5070 0x0000005f  # actual addr: 0x141c
write_reg 0x5074 0x00000001  # actual addr: 0x141d
write_reg 0x5078 0x00000000  # actual addr: 0x141e
write_reg 0x507c 0xd0000000  # actual addr: 0x141f
write_reg 0x5080 0x00011080  # actual addr: 0x1420
write_reg 0x5098 0x00000000  # actual addr: 0x1426
write_reg 0x50a4 0x00000000  # actual addr: 0x1429
write_reg 0x50b0 0x00030003  # actual addr: 0x142c
write_reg 0x50b4 0x00000000  # actual addr: 0x142d
write_reg 0x50b8 0x00000000  # actual addr: 0x142e
write_reg 0x50bc 0x0002000c  # actual addr: 0x142f
read_reg 0x9004 0xffffffff 0x00000000  # actual addr: 0x2401
write_reg 0x9004 0x00000001  # actual addr: 0x2401
write_reg 0x7004 0x00000001  # actual addr: 0x1c01
write_reg 0x8004 0x00000001  # actual addr: 0x2001
write_reg 0x6004 0x00000001  # actual addr: 0x1801
write_reg 0x5004 0x00000001  # actual addr: 0x1401
read_reg 0x9000 0xffffffff 0x00000000  # actual addr: 0x2400
read_reg 0x7000 0xffffffff 0x00000000  # actual addr: 0x1c00
read_reg 0x8000 0xffffffff 0x00000000  # actual addr: 0x2000
read_reg 0x6000 0xffffffff 0x00000000  # actual addr: 0x1800
read_reg 0x5000 0xffffffff 0x00000000  # actual addr: 0x1400
write_reg 0x900c 0x00002000  # actual addr: 0x2403
write_reg 0x9010 0x000b0036  # actual addr: 0x2404
write_reg 0x9014 0x0000005f  # actual addr: 0x2405
write_reg 0x9018 0x00000000  # actual addr: 0x2406
write_reg 0x901c 0x00000000  # actual addr: 0x2407
write_reg 0x9020 0x000006e0  # actual addr: 0x2408
write_reg 0x9024 0x00005280  # actual addr: 0x2409
write_reg 0x9028 0x00000000  # actual addr: 0x240a
write_reg 0x902c 0x00000000  # actual addr: 0x240b
write_reg 0x700c 0x00002000  # actual addr: 0x1c03
write_reg 0x800c 0x00002000  # actual addr: 0x2003
write_reg 0x600c 0x10102200  # actual addr: 0x1803
write_reg 0x6010 0x00000000  # actual addr: 0x1804
write_reg 0x6014 0x003900e2  # actual addr: 0x1805
write_reg 0x6018 0x00000002  # actual addr: 0x1806
write_reg 0x601c 0x00000000  # actual addr: 0x1807
write_reg 0x6020 0x00000000  # actual addr: 0x1808
write_reg 0x6024 0x00000038  # actual addr: 0x1809
write_reg 0x6028 0x00000000  # actual addr: 0x180a
write_reg 0x602c 0x000a000a  # actual addr: 0x180b
write_reg 0x6030 0x005f0002  # actual addr: 0x180c
write_reg 0x6034 0x00011080  # actual addr: 0x180d
write_reg 0x6038 0x00000000  # actual addr: 0x180e
write_reg 0x603c 0x000b0036  # actual addr: 0x180f
write_reg 0x6040 0x0000005f  # actual addr: 0x1810
write_reg 0x6044 0x00000293  # actual addr: 0x1811
write_reg 0x6048 0x00000039  # actual addr: 0x1812
write_reg 0x604c 0x00030003  # actual addr: 0x1813
write_reg 0x6050 0x00000000  # actual addr: 0x1814
write_reg 0x6054 0x00000000  # actual addr: 0x1815
write_reg 0x6058 0x00000000  # actual addr: 0x1816
write_reg 0x605c 0x0002000c  # actual addr: 0x1817
write_reg 0x6060 0x00000000  # actual addr: 0x1818
write_reg 0x5014 0x10102200  # actual addr: 0x1405
write_reg 0x5018 0x00100000  # actual addr: 0x1406
write_reg 0x501c 0x003900e2  # actual addr: 0x1407
write_reg 0x5020 0x00000002  # actual addr: 0x1408
write_reg 0x5024 0x003900e2  # actual addr: 0x1409
write_reg 0x502c 0x00000001  # actual addr: 0x140b
write_reg 0x5030 0x00000000  # actual addr: 0x140c
write_reg 0x5034 0xc0255200  # actual addr: 0x140d
write_reg 0x5038 0x00000000  # actual addr: 0x140e
write_reg 0x503c 0xc0255200  # actual addr: 0x140f
write_reg 0x5040 0x00001c60  # actual addr: 0x1410
write_reg 0x5048 0x00192920  # actual addr: 0x1412
write_reg 0x5044 0x00000000  # actual addr: 0x1411
write_reg 0x504c 0x00000001  # actual addr: 0x1413
write_reg 0x5058 0x00000000  # actual addr: 0x1416
write_reg 0x505c 0x00000000  # actual addr: 0x1417
write_reg 0x5060 0x00000038  # actual addr: 0x1418
write_reg 0x5064 0x00000000  # actual addr: 0x1419
write_reg 0x5068 0x00000000  # actual addr: 0x141a
write_reg 0x506c 0x000002d5  # actual addr: 0x141b
write_reg 0x5070 0x0000005f  # actual addr: 0x141c
write_reg 0x5074 0x00000001  # actual addr: 0x141d
write_reg 0x5078 0x00000000  # actual addr: 0x141e
write_reg 0x507c 0xd0000000  # actual addr: 0x141f
write_reg 0x5080 0x00011080  # actual addr: 0x1420
write_reg 0x5098 0x00000000  # actual addr: 0x1426
write_reg 0x50a4 0x00000000  # actual addr: 0x1429
write_reg 0x50b0 0x00030003  # actual addr: 0x142c
write_reg 0x50b4 0x00000000  # actual addr: 0x142d
write_reg 0x50b8 0x00000000  # actual addr: 0x142e
write_reg 0x50bc 0x0002000c  # actual addr: 0x142f
read_reg 0xb004 0xffffffff 0x00000000  # actual addr: 0x2c01
read_reg 0xa004 0xffffffff 0x00000000  # actual addr: 0x2801
write_reg 0xb004 0x00000000  # actual addr: 0x2c01
write_reg 0xa004 0x00000000  # actual addr: 0x2801
read_reg 0x4 0xffffffff 0x00000000  # actual addr: 0x0001
write_reg 0x4 0x00000000  # actual addr: 0x0001
write_reg 0xa070 0x00000000  # actual addr: 0x281c
write_reg 0xa028 0x00000000  # actual addr: 0x280a
write_reg 0xa040 0x00000000  # actual addr: 0x2810
write_reg 0xa058 0x00000000  # actual addr: 0x2816
write_reg 0xa070 0x000000a9  # actual addr: 0x281c
write_reg 0xa00c 0x00000036  # actual addr: 0x2803
write_reg 0xa010 0x0000000b  # actual addr: 0x2804
write_reg 0xa014 0x0000005f  # actual addr: 0x2805
write_reg 0xa028 0x0000002a  # actual addr: 0x280a
write_reg 0xa02c 0xd0020000  # actual addr: 0x280b
write_reg 0xa030 0x00000000  # actual addr: 0x280c
write_reg 0xa034 0x00000020  # actual addr: 0x280d
write_reg 0xa038 0x00000020  # actual addr: 0x280e
write_reg 0xa040 0x00000031  # actual addr: 0x2810
write_reg 0xa058 0x00000031  # actual addr: 0x2816
write_reg 0xb03c 0x00000036  # actual addr: 0x2c0f
write_reg 0xb040 0x0000000b  # actual addr: 0x2c10
write_reg 0xb044 0x0000005f  # actual addr: 0x2c11
write_reg 0xb04c 0x00000000  # actual addr: 0x2c13
write_reg 0xb048 0xc0400000  # actual addr: 0x2c12
write_reg 0xb050 0x000006e0  # actual addr: 0x2c14
write_reg 0xb054 0x00017a20  # actual addr: 0x2c15
write_reg 0xb058 0x00000018  # actual addr: 0x2c16
write_reg 0xb05c 0x00000001  # actual addr: 0x2c17
write_reg 0xb064 0x00000001  # actual addr: 0x2c19
write_reg 0xb06c 0x00000053  # actual addr: 0x2c1b
write_reg 0xb080 0x00000053  # actual addr: 0x2c20
write_reg 0xb0b0 0x00000001  # actual addr: 0x2c2c
write_reg 0xb0b4 0x00000001  # actual addr: 0x2c2d
write_reg 0xb0bc 0x0000000a  # actual addr: 0x2c2f
write_reg 0xb0c0 0x00000000  # actual addr: 0x2c30
write_reg 0xb0c4 0x00000001  # actual addr: 0x2c31
write_reg 0xb0c8 0x00000000  # actual addr: 0x2c32
write_reg 0xb004 0x00000000  # actual addr: 0x2c01
write_reg 0xa004 0x00000000  # actual addr: 0x2801
write_reg 0xa008 0x00000001  # actual addr: 0x2802
write_reg 0xb038 0x00000001  # actual addr: 0x2c0e
write_reg 0x9004 0x00000000  # actual addr: 0x2401
write_reg 0x7004 0x00000000  # actual addr: 0x1c01
write_reg 0x8004 0x00000000  # actual addr: 0x2001
write_reg 0x6004 0x00000000  # actual addr: 0x1801
write_reg 0x5004 0x00000000  # actual addr: 0x1401
read_reg 0x500c 0xffffffff 0x00000001  # actual addr: 0x1403
write_reg 0x9008 0x00000001  # actual addr: 0x2402
write_reg 0x7008 0x00000001  # actual addr: 0x1c02
write_reg 0x8008 0x00000001  # actual addr: 0x2002
write_reg 0x6008 0x00000001  # actual addr: 0x1802
write_reg 0x5010 0x00000001  # actual addr: 0x1404
read_reg 0xb004 0xffffffff 0x00000000  # actual addr: 0x2c01
read_reg 0xa004 0xffffffff 0x00010000  # actual addr: 0x2801
write_reg 0xb004 0x00000001  # actual addr: 0x2c01
write_reg 0xa004 0x00000001  # actual addr: 0x2801
read_reg 0x4 0xffffffff 0x00000000  # actual addr: 0x0001
write_reg 0x4 0x00000000  # actual addr: 0x0001
write_reg 0xa070 0x00000000  # actual addr: 0x281c
write_reg 0xa028 0x00000000  # actual addr: 0x280a
write_reg 0xa040 0x00000000  # actual addr: 0x2810
write_reg 0xa058 0x00000000  # actual addr: 0x2816
write_reg 0xa070 0x000000a9  # actual addr: 0x281c
write_reg 0xa00c 0x00000036  # actual addr: 0x2803
write_reg 0xa010 0x0000000b  # actual addr: 0x2804
write_reg 0xa014 0x0000005f  # actual addr: 0x2805
write_reg 0xa028 0x0000002a  # actual addr: 0x280a
write_reg 0xa02c 0xd0020000  # actual addr: 0x280b
write_reg 0xa030 0x00000000  # actual addr: 0x280c
write_reg 0xa034 0x00000020  # actual addr: 0x280d
write_reg 0xa038 0x00000020  # actual addr: 0x280e
write_reg 0xa040 0x00000031  # actual addr: 0x2810
write_reg 0xa058 0x00000031  # actual addr: 0x2816
write_reg 0xb03c 0x00000036  # actual addr: 0x2c0f
write_reg 0xb040 0x0000000b  # actual addr: 0x2c10
write_reg 0xb044 0x0000005f  # actual addr: 0x2c11
write_reg 0xb04c 0x00000000  # actual addr: 0x2c13
write_reg 0xb048 0xc0405280  # actual addr: 0x2c12
write_reg 0xb050 0x000006e0  # actual addr: 0x2c14
write_reg 0xb054 0x00017a20  # actual addr: 0x2c15
write_reg 0xb058 0x00000018  # actual addr: 0x2c16
write_reg 0xb05c 0x00000001  # actual addr: 0x2c17
write_reg 0xb064 0x00000001  # actual addr: 0x2c19
write_reg 0xb06c 0x00000053  # actual addr: 0x2c1b
write_reg 0xb080 0x00000053  # actual addr: 0x2c20
write_reg 0xb0b0 0x00000001  # actual addr: 0x2c2c
write_reg 0xb0b4 0x00000001  # actual addr: 0x2c2d
write_reg 0xb0bc 0x0000000a  # actual addr: 0x2c2f
write_reg 0xb0c0 0x00000000  # actual addr: 0x2c30
write_reg 0xb0c4 0x00000001  # actual addr: 0x2c31
write_reg 0xb0c8 0x00000000  # actual addr: 0x2c32
write_reg 0xb004 0x00000001  # actual addr: 0x2c01
write_reg 0xa004 0x00000001  # actual addr: 0x2801
write_reg 0xa008 0x00000001  # actual addr: 0x2802
write_reg 0xb038 0x00000001  # actual addr: 0x2c0e
write_reg 0x9004 0x00000001  # actual addr: 0x2401
write_reg 0x7004 0x00000001  # actual addr: 0x1c01
write_reg 0x8004 0x00000001  # actual addr: 0x2001
write_reg 0x6004 0x00000001  # actual addr: 0x1801
write_reg 0x5004 0x00000001  # actual addr: 0x1401
read_reg 0x500c 0xffffffff 0x00000001  # actual addr: 0x1403
write_reg 0x9008 0x00000001  # actual addr: 0x2402
write_reg 0x7008 0x00000001  # actual addr: 0x1c02
write_reg 0x8008 0x00000001  # actual addr: 0x2002
write_reg 0x6008 0x00000001  # actual addr: 0x1802
write_reg 0x5010 0x00000001  # actual addr: 0x1404
read_reg 0xd004 0xffffffff 0x00000000  # actual addr: 0x3401
read_reg 0xc004 0xffffffff 0x00000000  # actual addr: 0x3001
write_reg 0xd004 0x00000000  # actual addr: 0x3401
write_reg 0xc004 0x00000000  # actual addr: 0x3001
read_reg 0x4 0xffffffff 0x00000000  # actual addr: 0x0001
write_reg 0x4 0x00000000  # actual addr: 0x0001
write_reg 0xc00c 0x00000036  # actual addr: 0x3003
write_reg 0xc010 0x00000036  # actual addr: 0x3004
write_reg 0xc014 0x0000005f  # actual addr: 0x3005
write_reg 0xc020 0x00000000  # actual addr: 0x3008
write_reg 0xc01c 0xc0500000  # actual addr: 0x3007
write_reg 0xc024 0x000006e0  # actual addr: 0x3009
write_reg 0xc028 0x00017a20  # actual addr: 0x300a
write_reg 0xc030 0x00000002  # actual addr: 0x300c
write_reg 0xc02c 0x00000001  # actual addr: 0x300b
write_reg 0xc034 0x00000000  # actual addr: 0x300d
write_reg 0xc038 0x00000012  # actual addr: 0x300e
write_reg 0xc03c 0x00000000  # actual addr: 0x300f
write_reg 0xc040 0x00000000  # actual addr: 0x3010
write_reg 0xd00c 0x00000036  # actual addr: 0x3403
write_reg 0xd010 0x00000036  # actual addr: 0x3404
write_reg 0xd014 0x0000005f  # actual addr: 0x3405
write_reg 0xd018 0x0000001a  # actual addr: 0x3406
write_reg 0xd01c 0x0000001a  # actual addr: 0x3407
write_reg 0xd020 0x0000005f  # actual addr: 0x3408
write_reg 0xd024 0x00000011  # actual addr: 0x3409
write_reg 0xd02c 0x00000000  # actual addr: 0x340b
write_reg 0xd030 0x00000000  # actual addr: 0x340c
write_reg 0xd034 0x00110202  # actual addr: 0x340d
write_reg 0xd038 0x00007555  # actual addr: 0x340e
write_reg 0xd03c 0x00007555  # actual addr: 0x340f
write_reg 0xd040 0x00000000  # actual addr: 0x3410
write_reg 0xd044 0x00000000  # actual addr: 0x3411
write_reg 0xd048 0x00000000  # actual addr: 0x3412
write_reg 0xd04c 0x00000000  # actual addr: 0x3413
write_reg 0xd050 0x00000000  # actual addr: 0x3414
write_reg 0xd054 0x00000000  # actual addr: 0x3415
write_reg 0xd058 0x00000000  # actual addr: 0x3416
write_reg 0xd05c 0x00000000  # actual addr: 0x3417
write_reg 0xd068 0x000006e0  # actual addr: 0x341a
write_reg 0xd06c 0x00017a20  # actual addr: 0x341b
write_reg 0xd070 0xc0600000  # actual addr: 0x341c
write_reg 0xd074 0x00000000  # actual addr: 0x341d
write_reg 0xd078 0x00000360  # actual addr: 0x341e
write_reg 0xd07c 0x00005b20  # actual addr: 0x341f
write_reg 0xd080 0x00000001  # actual addr: 0x3420
write_reg 0xd084 0x00000002  # actual addr: 0x3421
read_reg 0xd004 0xffffffff 0x00000000  # actual addr: 0x3401
read_reg 0xc004 0xffffffff 0x00000000  # actual addr: 0x3001
write_reg 0xd004 0x00000001  # actual addr: 0x3401
write_reg 0xc004 0x00000001  # actual addr: 0x3001
read_reg 0x4 0xffffffff 0x00000000  # actual addr: 0x0001
write_reg 0x4 0x00000000  # actual addr: 0x0001
write_reg 0xc00c 0x0000001a  # actual addr: 0x3003
write_reg 0xc010 0x0000001a  # actual addr: 0x3004
write_reg 0xc014 0x000000ff  # actual addr: 0x3005
write_reg 0xc020 0x00000000  # actual addr: 0x3008
write_reg 0xc01c 0xc0600000  # actual addr: 0x3007
write_reg 0xc024 0x00000360  # actual addr: 0x3009
write_reg 0xc028 0x00005b20  # actual addr: 0x300a
write_reg 0xc030 0x00000002  # actual addr: 0x300c
write_reg 0xc02c 0x00000001  # actual addr: 0x300b
write_reg 0xc034 0x00000000  # actual addr: 0x300d
write_reg 0xc038 0x00000012  # actual addr: 0x300e
write_reg 0xc03c 0x00000000  # actual addr: 0x300f
write_reg 0xc040 0x00000000  # actual addr: 0x3010
write_reg 0xd00c 0x0000001a  # actual addr: 0x3403
write_reg 0xd010 0x0000001a  # actual addr: 0x3404
write_reg 0xd014 0x000000ff  # actual addr: 0x3405
write_reg 0xd018 0x0000000c  # actual addr: 0x3406
write_reg 0xd01c 0x0000000c  # actual addr: 0x3407
write_reg 0xd020 0x000000ff  # actual addr: 0x3408
write_reg 0xd024 0x00000011  # actual addr: 0x3409
write_reg 0xd02c 0x00000000  # actual addr: 0x340b
write_reg 0xd030 0x00000000  # actual addr: 0x340c
write_reg 0xd034 0x00110202  # actual addr: 0x340d
write_reg 0xd038 0x00007555  # actual addr: 0x340e
write_reg 0xd03c 0x00007555  # actual addr: 0x340f
write_reg 0xd040 0x00000000  # actual addr: 0x3410
write_reg 0xd044 0x00000000  # actual addr: 0x3411
write_reg 0xd048 0x00000000  # actual addr: 0x3412
write_reg 0xd04c 0x00000000  # actual addr: 0x3413
write_reg 0xd050 0x00000000  # actual addr: 0x3414
write_reg 0xd054 0x00000000  # actual addr: 0x3415
write_reg 0xd058 0x00000000  # actual addr: 0x3416
write_reg 0xd05c 0x00000000  # actual addr: 0x3417
write_reg 0xd068 0x00000360  # actual addr: 0x341a
write_reg 0xd06c 0x00005b20  # actual addr: 0x341b
write_reg 0xd070 0xc0680000  # actual addr: 0x341c
write_reg 0xd074 0x00000000  # actual addr: 0x341d
write_reg 0xd078 0x000001a0  # actual addr: 0x341e
write_reg 0xd07c 0x00001520  # actual addr: 0x341f
write_reg 0xd080 0x00000001  # actual addr: 0x3420
write_reg 0xd084 0x00000002  # actual addr: 0x3421
read_reg 0xf004 0xffffffff 0x00000000  # actual addr: 0x3c01
read_reg 0xe004 0xffffffff 0x00000000  # actual addr: 0x3801
write_reg 0xf004 0x00000000  # actual addr: 0x3c01
write_reg 0xe004 0x00000000  # actual addr: 0x3801
read_reg 0x4 0xffffffff 0x00000000  # actual addr: 0x0001
write_reg 0x4 0x00000000  # actual addr: 0x0001
write_reg 0xe00c 0x00000036  # actual addr: 0x3803
write_reg 0xe010 0x00000036  # actual addr: 0x3804
write_reg 0xe014 0x0000005f  # actual addr: 0x3805
write_reg 0xe018 0xc0400000  # actual addr: 0x3806
write_reg 0xe01c 0x00000000  # actual addr: 0x3807
write_reg 0xe020 0x000006e0  # actual addr: 0x3808
write_reg 0xe024 0x00017a20  # actual addr: 0x3809
write_reg 0xe028 0x00000001  # actual addr: 0x380a
write_reg 0xe034 0x00000002  # actual addr: 0x380d
write_reg 0xf008 0x00020000  # actual addr: 0x3c02
write_reg 0xf00c 0x00003c00  # actual addr: 0x3c03
write_reg 0xf00c 0x00003c00  # actual addr: 0x3c03
write_reg 0xf00c 0x00003c00  # actual addr: 0x3c03
write_reg 0xf00c 0x00003c00  # actual addr: 0x3c03
write_reg 0xf00c 0x00003c00  # actual addr: 0x3c03
write_reg 0xf00c 0x00003bff  # actual addr: 0x3c03
write_reg 0xf00c 0x00003bfe  # actual addr: 0x3c03
write_reg 0xf00c 0x00003bfc  # actual addr: 0x3c03
write_reg 0xf00c 0x00003bf8  # actual addr: 0x3c03
write_reg 0xf00c 0x00003bf0  # actual addr: 0x3c03
write_reg 0xf00c 0x00003be1  # actual addr: 0x3c03
write_reg 0xf00c 0x00003bc3  # actual addr: 0x3c03
write_reg 0xf00c 0x00003b8b  # actual addr: 0x3c03
write_reg 0xf00c 0x00003b24  # actual addr: 0x3c03
write_reg 0xf00c 0x00003a78  # actual addr: 0x3c03
write_reg 0xf00c 0x0000397b  # actual addr: 0x3c03
write_reg 0xf00c 0x00003845  # actual addr: 0x3c03
write_reg 0xf00c 0x00003618  # actual addr: 0x3c03
write_reg 0xf00c 0x0000340d  # actual addr: 0x3c03
write_reg 0xf00c 0x00003121  # actual addr: 0x3c03
write_reg 0xf00c 0x00002e4e  # actual addr: 0x3c03
write_reg 0xf00c 0x00002ba1  # actual addr: 0x3c03
write_reg 0xf00c 0x00002894  # actual addr: 0x3c03
write_reg 0xf00c 0x00002578  # actual addr: 0x3c03
write_reg 0xf00c 0x00002284  # actual addr: 0x3c03
write_reg 0xf00c 0x00001fc2  # actual addr: 0x3c03
write_reg 0xf00c 0x00001c9e  # actual addr: 0x3c03
write_reg 0xf00c 0x0000197d  # actual addr: 0x3c03
write_reg 0xf00c 0x00001688  # actual addr: 0x3c03
write_reg 0xf00c 0x000013c4  # actual addr: 0x3c03
write_reg 0xf00c 0x0000109e  # actual addr: 0x3c03
write_reg 0xf00c 0x00000d7e  # actual addr: 0x3c03
write_reg 0xf00c 0x00000a88  # actual addr: 0x3c03
write_reg 0xf00c 0x000007c4  # actual addr: 0x3c03
write_reg 0xf00c 0x0000049e  # actual addr: 0x3c03
write_reg 0xf00c 0x000002bf  # actual addr: 0x3c03
write_reg 0xf00c 0x000001a2  # actual addr: 0x3c03
write_reg 0xf00c 0x000000f9  # actual addr: 0x3c03
write_reg 0xf00c 0x00000094  # actual addr: 0x3c03
write_reg 0xf00c 0x00000058  # actual addr: 0x3c03
write_reg 0xf00c 0x00000034  # actual addr: 0x3c03
write_reg 0xf00c 0x0000001f  # actual addr: 0x3c03
write_reg 0xf00c 0x00000012  # actual addr: 0x3c03
write_reg 0xf00c 0x0000000b  # actual addr: 0x3c03
write_reg 0xf00c 0x00000007  # actual addr: 0x3c03
write_reg 0xf00c 0x00000004  # actual addr: 0x3c03
write_reg 0xf00c 0x00000002  # actual addr: 0x3c03
write_reg 0xf00c 0x00000001  # actual addr: 0x3c03
write_reg 0xf00c 0x00000001  # actual addr: 0x3c03
write_reg 0xf00c 0x00000000  # actual addr: 0x3c03
write_reg 0xf00c 0x00000000  # actual addr: 0x3c03
write_reg 0xf00c 0x00000000  # actual addr: 0x3c03
write_reg 0xf00c 0x00000000  # actual addr: 0x3c03
write_reg 0xf00c 0x00000000  # actual addr: 0x3c03
write_reg 0xf00c 0x00000000  # actual addr: 0x3c03
write_reg 0xf00c 0x00000000  # actual addr: 0x3c03
write_reg 0xf00c 0x00000000  # actual addr: 0x3c03
write_reg 0xf00c 0x00000000  # actual addr: 0x3c03
write_reg 0xf00c 0x00000000  # actual addr: 0x3c03
write_reg 0xf00c 0x00000000  # actual addr: 0x3c03
write_reg 0xf00c 0x00000000  # actual addr: 0x3c03
write_reg 0xf00c 0x00000000  # actual addr: 0x3c03
write_reg 0xf00c 0x00000000  # actual addr: 0x3c03
write_reg 0xf00c 0x00000000  # actual addr: 0x3c03
write_reg 0xf00c 0x00000000  # actual addr: 0x3c03
write_reg 0xf008 0x00030000  # actual addr: 0x3c02
write_reg 0xf00c 0x00000000  # actual addr: 0x3c03
write_reg 0xf00c 0x00000000  # actual addr: 0x3c03
write_reg 0xf00c 0x00000000  # actual addr: 0x3c03
write_reg 0xf00c 0x00000000  # actual addr: 0x3c03
write_reg 0xf00c 0x00000000  # actual addr: 0x3c03
write_reg 0xf00c 0x00000000  # actual addr: 0x3c03
write_reg 0xf00c 0x00000000  # actual addr: 0x3c03
write_reg 0xf00c 0x00000000  # actual addr: 0x3c03
write_reg 0xf00c 0x00000000  # actual addr: 0x3c03
write_reg 0xf00c 0x00000000  # actual addr: 0x3c03
write_reg 0xf00c 0x00000000  # actual addr: 0x3c03
write_reg 0xf00c 0x00000000  # actual addr: 0x3c03
write_reg 0xf00c 0x00000000  # actual addr: 0x3c03
write_reg 0xf00c 0x00000000  # actual addr: 0x3c03
write_reg 0xf00c 0x00000000  # actual addr: 0x3c03
write_reg 0xf00c 0x00000000  # actual addr: 0x3c03
write_reg 0xf00c 0x00000000  # actual addr: 0x3c03
write_reg 0xf00c 0x00000000  # actual addr: 0x3c03
write_reg 0xf00c 0x00000000  # actual addr: 0x3c03
write_reg 0xf00c 0x00000000  # actual addr: 0x3c03
write_reg 0xf00c 0x00000000  # actual addr: 0x3c03
write_reg 0xf00c 0x00000000  # actual addr: 0x3c03
write_reg 0xf00c 0x00000000  # actual addr: 0x3c03
write_reg 0xf00c 0x00000000  # actual addr: 0x3c03
write_reg 0xf00c 0x00000000  # actual addr: 0x3c03
write_reg 0xf00c 0x00000000  # actual addr: 0x3c03
write_reg 0xf00c 0x00000000  # actual addr: 0x3c03
write_reg 0xf00c 0x00000000  # actual addr: 0x3c03
write_reg 0xf00c 0x00000000  # actual addr: 0x3c03
write_reg 0xf00c 0x00000000  # actual addr: 0x3c03
write_reg 0xf00c 0x00000000  # actual addr: 0x3c03
write_reg 0xf00c 0x00000000  # actual addr: 0x3c03
write_reg 0xf00c 0x00000000  # actual addr: 0x3c03
write_reg 0xf00c 0x00000000  # actual addr: 0x3c03
write_reg 0xf00c 0x00000000  # actual addr: 0x3c03
write_reg 0xf00c 0x00000000  # actual addr: 0x3c03
write_reg 0xf00c 0x00000000  # actual addr: 0x3c03
write_reg 0xf00c 0x00000000  # actual addr: 0x3c03
write_reg 0xf00c 0x00000000  # actual addr: 0x3c03
write_reg 0xf00c 0x00000000  # actual addr: 0x3c03
write_reg 0xf00c 0x00000000  # actual addr: 0x3c03
write_reg 0xf00c 0x00000000  # actual addr: 0x3c03
write_reg 0xf00c 0x00000000  # actual addr: 0x3c03
write_reg 0xf00c 0x00000000  # actual addr: 0x3c03
write_reg 0xf00c 0x00000000  # actual addr: 0x3c03
write_reg 0xf00c 0x00000000  # actual addr: 0x3c03
write_reg 0xf00c 0x00000000  # actual addr: 0x3c03
write_reg 0xf00c 0x00000000  # actual addr: 0x3c03
write_reg 0xf00c 0x00000000  # actual addr: 0x3c03
write_reg 0xf00c 0x00000000  # actual addr: 0x3c03
write_reg 0xf00c 0x00000000  # actual addr: 0x3c03
write_reg 0xf00c 0x00000000  # actual addr: 0x3c03
write_reg 0xf00c 0x00000000  # actual addr: 0x3c03
write_reg 0xf00c 0x00000000  # actual addr: 0x3c03
write_reg 0xf00c 0x00000000  # actual addr: 0x3c03
write_reg 0xf00c 0x00000000  # actual addr: 0x3c03
write_reg 0xf00c 0x00000000  # actual addr: 0x3c03
write_reg 0xf00c 0x00000000  # actual addr: 0x3c03
write_reg 0xf00c 0x00000000  # actual addr: 0x3c03
write_reg 0xf00c 0x00000000  # actual addr: 0x3c03
write_reg 0xf00c 0x00000000  # actual addr: 0x3c03
write_reg 0xf00c 0x00000000  # actual addr: 0x3c03
write_reg 0xf00c 0x00000000  # actual addr: 0x3c03
write_reg 0xf00c 0x00000000  # actual addr: 0x3c03
write_reg 0xf00c 0x00000000  # actual addr: 0x3c03
write_reg 0xf00c 0x00000000  # actual addr: 0x3c03
write_reg 0xf00c 0x00000000  # actual addr: 0x3c03
write_reg 0xf00c 0x00000000  # actual addr: 0x3c03
write_reg 0xf00c 0x00000000  # actual addr: 0x3c03
write_reg 0xf00c 0x00000000  # actual addr: 0x3c03
write_reg 0xf00c 0x00000000  # actual addr: 0x3c03
write_reg 0xf00c 0x00000000  # actual addr: 0x3c03
write_reg 0xf00c 0x00000000  # actual addr: 0x3c03
write_reg 0xf00c 0x00000000  # actual addr: 0x3c03
write_reg 0xf00c 0x00000000  # actual addr: 0x3c03
write_reg 0xf00c 0x00000000  # actual addr: 0x3c03
write_reg 0xf00c 0x00000000  # actual addr: 0x3c03
write_reg 0xf00c 0x00000000  # actual addr: 0x3c03
write_reg 0xf00c 0x00000000  # actual addr: 0x3c03
write_reg 0xf00c 0x00000000  # actual addr: 0x3c03
write_reg 0xf00c 0x00000000  # actual addr: 0x3c03
write_reg 0xf00c 0x00000000  # actual addr: 0x3c03
write_reg 0xf00c 0x00000000  # actual addr: 0x3c03
write_reg 0xf00c 0x00000000  # actual addr: 0x3c03
write_reg 0xf00c 0x00000000  # actual addr: 0x3c03
write_reg 0xf00c 0x00000000  # actual addr: 0x3c03
write_reg 0xf00c 0x00000000  # actual addr: 0x3c03
write_reg 0xf00c 0x00000000  # actual addr: 0x3c03
write_reg 0xf00c 0x00000000  # actual addr: 0x3c03
write_reg 0xf00c 0x00000000  # actual addr: 0x3c03
write_reg 0xf00c 0x00000000  # actual addr: 0x3c03
write_reg 0xf00c 0x00000000  # actual addr: 0x3c03
write_reg 0xf00c 0x00000000  # actual addr: 0x3c03
write_reg 0xf00c 0x00000000  # actual addr: 0x3c03
write_reg 0xf00c 0x00000000  # actual addr: 0x3c03
write_reg 0xf00c 0x00000000  # actual addr: 0x3c03
write_reg 0xf00c 0x00000000  # actual addr: 0x3c03
write_reg 0xf00c 0x00000000  # actual addr: 0x3c03
write_reg 0xf00c 0x00000000  # actual addr: 0x3c03
write_reg 0xf00c 0x00000000  # actual addr: 0x3c03
write_reg 0xf00c 0x00000000  # actual addr: 0x3c03
write_reg 0xf00c 0x00000000  # actual addr: 0x3c03
write_reg 0xf00c 0x00000000  # actual addr: 0x3c03
write_reg 0xf00c 0x00000000  # actual addr: 0x3c03
write_reg 0xf00c 0x00000000  # actual addr: 0x3c03
write_reg 0xf00c 0x00000000  # actual addr: 0x3c03
write_reg 0xf00c 0x00000000  # actual addr: 0x3c03
write_reg 0xf00c 0x00000000  # actual addr: 0x3c03
write_reg 0xf00c 0x00000000  # actual addr: 0x3c03
write_reg 0xf00c 0x00000000  # actual addr: 0x3c03
write_reg 0xf00c 0x00000000  # actual addr: 0x3c03
write_reg 0xf00c 0x00000000  # actual addr: 0x3c03
write_reg 0xf00c 0x00000000  # actual addr: 0x3c03
write_reg 0xf00c 0x00000000  # actual addr: 0x3c03
write_reg 0xf00c 0x00000000  # actual addr: 0x3c03
write_reg 0xf00c 0x00000000  # actual addr: 0x3c03
write_reg 0xf00c 0x00000000  # actual addr: 0x3c03
write_reg 0xf00c 0x00000000  # actual addr: 0x3c03
write_reg 0xf00c 0x00000000  # actual addr: 0x3c03
write_reg 0xf00c 0x00000000  # actual addr: 0x3c03
write_reg 0xf00c 0x00000000  # actual addr: 0x3c03
write_reg 0xf00c 0x00000000  # actual addr: 0x3c03
write_reg 0xf00c 0x00000000  # actual addr: 0x3c03
write_reg 0xf00c 0x00000000  # actual addr: 0x3c03
write_reg 0xf00c 0x00000000  # actual addr: 0x3c03
write_reg 0xf00c 0x00000000  # actual addr: 0x3c03
write_reg 0xf00c 0x00000000  # actual addr: 0x3c03
write_reg 0xf00c 0x00000000  # actual addr: 0x3c03
write_reg 0xf00c 0x00000000  # actual addr: 0x3c03
write_reg 0xf00c 0x00000000  # actual addr: 0x3c03
write_reg 0xf00c 0x00000000  # actual addr: 0x3c03
write_reg 0xf00c 0x00000000  # actual addr: 0x3c03
write_reg 0xf00c 0x00000000  # actual addr: 0x3c03
write_reg 0xf00c 0x00000000  # actual addr: 0x3c03
write_reg 0xf00c 0x00000000  # actual addr: 0x3c03
write_reg 0xf00c 0x00000000  # actual addr: 0x3c03
write_reg 0xf00c 0x00000000  # actual addr: 0x3c03
write_reg 0xf00c 0x00000000  # actual addr: 0x3c03
write_reg 0xf00c 0x00000000  # actual addr: 0x3c03
write_reg 0xf00c 0x00000000  # actual addr: 0x3c03
write_reg 0xf00c 0x00000000  # actual addr: 0x3c03
write_reg 0xf00c 0x00000000  # actual addr: 0x3c03
write_reg 0xf00c 0x00000000  # actual addr: 0x3c03
write_reg 0xf00c 0x00000000  # actual addr: 0x3c03
write_reg 0xf00c 0x00000000  # actual addr: 0x3c03
write_reg 0xf00c 0x00000000  # actual addr: 0x3c03
write_reg 0xf00c 0x00000000  # actual addr: 0x3c03
write_reg 0xf00c 0x00000000  # actual addr: 0x3c03
write_reg 0xf00c 0x00000000  # actual addr: 0x3c03
write_reg 0xf00c 0x00000000  # actual addr: 0x3c03
write_reg 0xf00c 0x00000000  # actual addr: 0x3c03
write_reg 0xf00c 0x00000000  # actual addr: 0x3c03
write_reg 0xf00c 0x00000000  # actual addr: 0x3c03
read_reg 0x4 0xffffffff 0x00000000  # actual addr: 0x0001
read_reg 0xc 0xffffffff 0x003f0003  # actual addr: 0x0003
write_reg 0xc 0x003f0003  # actual addr: 0x0003
read_reg 0x4 0xffffffff 0x00000000  # actual addr: 0x0001
read_reg 0xc 0xffffffff 0x00000000  # actual addr: 0x0003
write_reg 0xf00c 0x00000000  # actual addr: 0x3c03
write_reg 0xf00c 0x00000000  # actual addr: 0x3c03
write_reg 0xf00c 0x00000000  # actual addr: 0x3c03
write_reg 0xf00c 0x00000000  # actual addr: 0x3c03
write_reg 0xf00c 0x00000000  # actual addr: 0x3c03
write_reg 0xf00c 0x00000000  # actual addr: 0x3c03
write_reg 0xf00c 0x00000000  # actual addr: 0x3c03
write_reg 0xf00c 0x00000000  # actual addr: 0x3c03
write_reg 0xf00c 0x00000000  # actual addr: 0x3c03
write_reg 0xf00c 0x00000000  # actual addr: 0x3c03
write_reg 0xf00c 0x00000000  # actual addr: 0x3c03
write_reg 0xf00c 0x00000000  # actual addr: 0x3c03
write_reg 0xf00c 0x00000000  # actual addr: 0x3c03
write_reg 0xf00c 0x00000000  # actual addr: 0x3c03
write_reg 0xf00c 0x00000000  # actual addr: 0x3c03
write_reg 0xf00c 0x00000000  # actual addr: 0x3c03
write_reg 0xf00c 0x00000000  # actual addr: 0x3c03
write_reg 0xf00c 0x00000000  # actual addr: 0x3c03
write_reg 0xf00c 0x00000000  # actual addr: 0x3c03
write_reg 0xf00c 0x00000000  # actual addr: 0x3c03
write_reg 0xf00c 0x00000000  # actual addr: 0x3c03
write_reg 0xf00c 0x00000000  # actual addr: 0x3c03
write_reg 0xf00c 0x00000000  # actual addr: 0x3c03
write_reg 0xf00c 0x00000000  # actual addr: 0x3c03
write_reg 0xf00c 0x00000000  # actual addr: 0x3c03
write_reg 0xf00c 0x00000000  # actual addr: 0x3c03
write_reg 0xf00c 0x00000000  # actual addr: 0x3c03
write_reg 0xf00c 0x00000000  # actual addr: 0x3c03
write_reg 0xf00c 0x00000000  # actual addr: 0x3c03
write_reg 0xf00c 0x00000000  # actual addr: 0x3c03
write_reg 0xf00c 0x00000000  # actual addr: 0x3c03
write_reg 0xf00c 0x00000000  # actual addr: 0x3c03
write_reg 0xf00c 0x00000000  # actual addr: 0x3c03
write_reg 0xf00c 0x00000000  # actual addr: 0x3c03
write_reg 0xf00c 0x00000000  # actual addr: 0x3c03
write_reg 0xf00c 0x00000000  # actual addr: 0x3c03
write_reg 0xf00c 0x00000000  # actual addr: 0x3c03
write_reg 0xf00c 0x00000000  # actual addr: 0x3c03
write_reg 0xf00c 0x00000000  # actual addr: 0x3c03
write_reg 0xf00c 0x00000000  # actual addr: 0x3c03
write_reg 0xf00c 0x00000000  # actual addr: 0x3c03
write_reg 0xf00c 0x00000000  # actual addr: 0x3c03
write_reg 0xf00c 0x00000000  # actual addr: 0x3c03
write_reg 0xf00c 0x00000000  # actual addr: 0x3c03
write_reg 0xf00c 0x00000000  # actual addr: 0x3c03
write_reg 0xf00c 0x00000000  # actual addr: 0x3c03
write_reg 0xf00c 0x00000000  # actual addr: 0x3c03
write_reg 0xf00c 0x00000000  # actual addr: 0x3c03
write_reg 0xf00c 0x00000000  # actual addr: 0x3c03
write_reg 0xf00c 0x00000000  # actual addr: 0x3c03
write_reg 0xf00c 0x00000000  # actual addr: 0x3c03
write_reg 0xf00c 0x00000000  # actual addr: 0x3c03
write_reg 0xf00c 0x00000000  # actual addr: 0x3c03
write_reg 0xf00c 0x00000000  # actual addr: 0x3c03
write_reg 0xf00c 0x00000000  # actual addr: 0x3c03
write_reg 0xf00c 0x00000000  # actual addr: 0x3c03
write_reg 0xf00c 0x00000000  # actual addr: 0x3c03
write_reg 0xf00c 0x00000000  # actual addr: 0x3c03
write_reg 0xf00c 0x00000000  # actual addr: 0x3c03
write_reg 0xf00c 0x00000000  # actual addr: 0x3c03
write_reg 0xf00c 0x00000000  # actual addr: 0x3c03
write_reg 0xf00c 0x00000000  # actual addr: 0x3c03
write_reg 0xf00c 0x00000000  # actual addr: 0x3c03
write_reg 0xf00c 0x00000000  # actual addr: 0x3c03
write_reg 0xf00c 0x00000000  # actual addr: 0x3c03
write_reg 0xf00c 0x00000000  # actual addr: 0x3c03
write_reg 0xf00c 0x00000000  # actual addr: 0x3c03
write_reg 0xf00c 0x00000000  # actual addr: 0x3c03
write_reg 0xf00c 0x00000000  # actual addr: 0x3c03
write_reg 0xf00c 0x00000000  # actual addr: 0x3c03
write_reg 0xf00c 0x00000000  # actual addr: 0x3c03
write_reg 0xf00c 0x00000000  # actual addr: 0x3c03
write_reg 0xf00c 0x00000000  # actual addr: 0x3c03
write_reg 0xf00c 0x00000000  # actual addr: 0x3c03
write_reg 0xf00c 0x00000000  # actual addr: 0x3c03
write_reg 0xf00c 0x00000000  # actual addr: 0x3c03
write_reg 0xf00c 0x00000000  # actual addr: 0x3c03
write_reg 0xf00c 0x00000000  # actual addr: 0x3c03
write_reg 0xf00c 0x00000000  # actual addr: 0x3c03
write_reg 0xf00c 0x00000000  # actual addr: 0x3c03
write_reg 0xf00c 0x00000000  # actual addr: 0x3c03
write_reg 0xf00c 0x00000000  # actual addr: 0x3c03
write_reg 0xf00c 0x00000000  # actual addr: 0x3c03
write_reg 0xf00c 0x00000000  # actual addr: 0x3c03
write_reg 0xf00c 0x00000000  # actual addr: 0x3c03
write_reg 0xf00c 0x00000000  # actual addr: 0x3c03
write_reg 0xf00c 0x00000000  # actual addr: 0x3c03
write_reg 0xf00c 0x00000000  # actual addr: 0x3c03
write_reg 0xf00c 0x00000000  # actual addr: 0x3c03
write_reg 0xf00c 0x00000000  # actual addr: 0x3c03
write_reg 0xf00c 0x00000000  # actual addr: 0x3c03
write_reg 0xf00c 0x00000000  # actual addr: 0x3c03
write_reg 0xf00c 0x00000000  # actual addr: 0x3c03
write_reg 0xf00c 0x00000000  # actual addr: 0x3c03
write_reg 0xf00c 0x00000000  # actual addr: 0x3c03
write_reg 0xf00c 0x00000000  # actual addr: 0x3c03
write_reg 0xf00c 0x00000000  # actual addr: 0x3c03
write_reg 0xf00c 0x00000000  # actual addr: 0x3c03
write_reg 0xf00c 0x00000000  # actual addr: 0x3c03
write_reg 0xf00c 0x00000000  # actual addr: 0x3c03
write_reg 0xf00c 0x00000000  # actual addr: 0x3c03
write_reg 0xf00c 0x00000000  # actual addr: 0x3c03
write_reg 0xf00c 0x00000000  # actual addr: 0x3c03
write_reg 0xf00c 0x00000000  # actual addr: 0x3c03
write_reg 0xf010 0x00000000  # actual addr: 0x3c04
write_reg 0xf014 0x00800000  # actual addr: 0x3c05
write_reg 0xf018 0x00000000  # actual addr: 0x3c06
write_reg 0xf01c 0x00000000  # actual addr: 0x3c07
write_reg 0xf020 0x00000000  # actual addr: 0x3c08
write_reg 0xf024 0x00000000  # actual addr: 0x3c09
write_reg 0xf028 0x00000001  # actual addr: 0x3c0a
write_reg 0xf02c 0x00000000  # actual addr: 0x3c0b
write_reg 0xf030 0x00000001  # actual addr: 0x3c0c
write_reg 0xf034 0x00000000  # actual addr: 0x3c0d
write_reg 0xf038 0x00000000  # actual addr: 0x3c0e
write_reg 0xf040 0x00000000  # actual addr: 0x3c10
write_reg 0xf050 0xc0500000  # actual addr: 0x3c14
write_reg 0xf054 0x00000000  # actual addr: 0x3c15
write_reg 0xf058 0x000006e0  # actual addr: 0x3c16
write_reg 0xf05c 0x00017a20  # actual addr: 0x3c17
write_reg 0xf060 0x00000001  # actual addr: 0x3c18
write_reg 0xf068 0x00000002  # actual addr: 0x3c1a
write_reg 0xf070 0x00000001  # actual addr: 0x3c1c
write_reg 0xf074 0x00000000  # actual addr: 0x3c1d
write_reg 0xf078 0x00000001  # actual addr: 0x3c1e
write_reg 0xf07c 0x00000000  # actual addr: 0x3c1f
write_reg 0xf080 0x00000000  # actual addr: 0x3c20
write_reg 0xf084 0x00000001  # actual addr: 0x3c21
write_reg 0xf088 0x00000000  # actual addr: 0x3c22
write_reg 0xf04c 0x00000000  # actual addr: 0x3c13
read_reg 0xf004 0xffffffff 0x00000000  # actual addr: 0x3c01
read_reg 0xe004 0xffffffff 0x00000000  # actual addr: 0x3801
write_reg 0xf004 0x00000001  # actual addr: 0x3c01
write_reg 0xe004 0x00000001  # actual addr: 0x3801
read_reg 0x4 0xffffffff 0x00000000  # actual addr: 0x0001
write_reg 0x4 0x00000000  # actual addr: 0x0001
write_reg 0xe00c 0x0000001a  # actual addr: 0x3803
write_reg 0xe010 0x0000001a  # actual addr: 0x3804
write_reg 0xe014 0x000000ff  # actual addr: 0x3805
write_reg 0xe018 0xc0680000  # actual addr: 0x3806
write_reg 0xe01c 0x00000000  # actual addr: 0x3807
write_reg 0xe020 0x00000360  # actual addr: 0x3808
write_reg 0xe024 0x00005b20  # actual addr: 0x3809
write_reg 0xe028 0x00000001  # actual addr: 0x380a
write_reg 0xe034 0x00000002  # actual addr: 0x380d
write_reg 0xf008 0x00020000  # actual addr: 0x3c02
write_reg 0xf00c 0x00003c00  # actual addr: 0x3c03
write_reg 0xf00c 0x00003c00  # actual addr: 0x3c03
write_reg 0xf00c 0x00003c00  # actual addr: 0x3c03
write_reg 0xf00c 0x00003c00  # actual addr: 0x3c03
write_reg 0xf00c 0x00003c00  # actual addr: 0x3c03
write_reg 0xf00c 0x00003bff  # actual addr: 0x3c03
write_reg 0xf00c 0x00003bfe  # actual addr: 0x3c03
write_reg 0xf00c 0x00003bfc  # actual addr: 0x3c03
write_reg 0xf00c 0x00003bf8  # actual addr: 0x3c03
write_reg 0xf00c 0x00003bf0  # actual addr: 0x3c03
write_reg 0xf00c 0x00003be1  # actual addr: 0x3c03
write_reg 0xf00c 0x00003bc3  # actual addr: 0x3c03
write_reg 0xf00c 0x00003b8b  # actual addr: 0x3c03
write_reg 0xf00c 0x00003b24  # actual addr: 0x3c03
write_reg 0xf00c 0x00003a78  # actual addr: 0x3c03
write_reg 0xf00c 0x0000397b  # actual addr: 0x3c03
write_reg 0xf00c 0x00003845  # actual addr: 0x3c03
write_reg 0xf00c 0x00003618  # actual addr: 0x3c03
write_reg 0xf00c 0x0000340d  # actual addr: 0x3c03
write_reg 0xf00c 0x00003121  # actual addr: 0x3c03
write_reg 0xf00c 0x00002e4e  # actual addr: 0x3c03
write_reg 0xf00c 0x00002ba1  # actual addr: 0x3c03
write_reg 0xf00c 0x00002894  # actual addr: 0x3c03
write_reg 0xf00c 0x00002578  # actual addr: 0x3c03
write_reg 0xf00c 0x00002284  # actual addr: 0x3c03
write_reg 0xf00c 0x00001fc2  # actual addr: 0x3c03
write_reg 0xf00c 0x00001c9e  # actual addr: 0x3c03
write_reg 0xf00c 0x0000197d  # actual addr: 0x3c03
write_reg 0xf00c 0x00001688  # actual addr: 0x3c03
write_reg 0xf00c 0x000013c4  # actual addr: 0x3c03
write_reg 0xf00c 0x0000109e  # actual addr: 0x3c03
write_reg 0xf00c 0x00000d7e  # actual addr: 0x3c03
write_reg 0xf00c 0x00000a88  # actual addr: 0x3c03
write_reg 0xf00c 0x000007c4  # actual addr: 0x3c03
write_reg 0xf00c 0x0000049e  # actual addr: 0x3c03
write_reg 0xf00c 0x000002bf  # actual addr: 0x3c03
write_reg 0xf00c 0x000001a2  # actual addr: 0x3c03
write_reg 0xf00c 0x000000f9  # actual addr: 0x3c03
write_reg 0xf00c 0x00000094  # actual addr: 0x3c03
write_reg 0xf00c 0x00000058  # actual addr: 0x3c03
write_reg 0xf00c 0x00000034  # actual addr: 0x3c03
write_reg 0xf00c 0x0000001f  # actual addr: 0x3c03
write_reg 0xf00c 0x00000012  # actual addr: 0x3c03
write_reg 0xf00c 0x0000000b  # actual addr: 0x3c03
write_reg 0xf00c 0x00000007  # actual addr: 0x3c03
write_reg 0xf00c 0x00000004  # actual addr: 0x3c03
write_reg 0xf00c 0x00000002  # actual addr: 0x3c03
write_reg 0xf00c 0x00000001  # actual addr: 0x3c03
write_reg 0xf00c 0x00000001  # actual addr: 0x3c03
write_reg 0xf00c 0x00000000  # actual addr: 0x3c03
write_reg 0xf00c 0x00000000  # actual addr: 0x3c03
write_reg 0xf00c 0x00000000  # actual addr: 0x3c03
write_reg 0xf00c 0x00000000  # actual addr: 0x3c03
write_reg 0xf00c 0x00000000  # actual addr: 0x3c03
write_reg 0xf00c 0x00000000  # actual addr: 0x3c03
write_reg 0xf00c 0x00000000  # actual addr: 0x3c03
write_reg 0xf00c 0x00000000  # actual addr: 0x3c03
write_reg 0xf00c 0x00000000  # actual addr: 0x3c03
write_reg 0xf00c 0x00000000  # actual addr: 0x3c03
write_reg 0xf00c 0x00000000  # actual addr: 0x3c03
write_reg 0xf00c 0x00000000  # actual addr: 0x3c03
write_reg 0xf00c 0x00000000  # actual addr: 0x3c03
write_reg 0xf00c 0x00000000  # actual addr: 0x3c03
write_reg 0xf00c 0x00000000  # actual addr: 0x3c03
write_reg 0xf00c 0x00000000  # actual addr: 0x3c03
write_reg 0xf008 0x00030000  # actual addr: 0x3c02
write_reg 0xf00c 0x00000000  # actual addr: 0x3c03
write_reg 0xf00c 0x00000000  # actual addr: 0x3c03
write_reg 0xf00c 0x00000000  # actual addr: 0x3c03
write_reg 0xf00c 0x00000000  # actual addr: 0x3c03
write_reg 0xf00c 0x00000000  # actual addr: 0x3c03
write_reg 0xf00c 0x00000000  # actual addr: 0x3c03
write_reg 0xf00c 0x00000000  # actual addr: 0x3c03
write_reg 0xf00c 0x00000000  # actual addr: 0x3c03
write_reg 0xf00c 0x00000000  # actual addr: 0x3c03
write_reg 0xf00c 0x00000000  # actual addr: 0x3c03
write_reg 0xf00c 0x00000000  # actual addr: 0x3c03
write_reg 0xf00c 0x00000000  # actual addr: 0x3c03
write_reg 0xf00c 0x00000000  # actual addr: 0x3c03
write_reg 0xf00c 0x00000000  # actual addr: 0x3c03
write_reg 0xf00c 0x00000000  # actual addr: 0x3c03
write_reg 0xf00c 0x00000000  # actual addr: 0x3c03
write_reg 0xf00c 0x00000000  # actual addr: 0x3c03
write_reg 0xf00c 0x00000000  # actual addr: 0x3c03
write_reg 0xf00c 0x00000000  # actual addr: 0x3c03
write_reg 0xf00c 0x00000000  # actual addr: 0x3c03
write_reg 0xf00c 0x00000000  # actual addr: 0x3c03
write_reg 0xf00c 0x00000000  # actual addr: 0x3c03
write_reg 0xf00c 0x00000000  # actual addr: 0x3c03
write_reg 0xf00c 0x00000000  # actual addr: 0x3c03
write_reg 0xf00c 0x00000000  # actual addr: 0x3c03
write_reg 0xf00c 0x00000000  # actual addr: 0x3c03
write_reg 0xf00c 0x00000000  # actual addr: 0x3c03
write_reg 0xf00c 0x00000000  # actual addr: 0x3c03
write_reg 0xf00c 0x00000000  # actual addr: 0x3c03
write_reg 0xf00c 0x00000000  # actual addr: 0x3c03
write_reg 0xf00c 0x00000000  # actual addr: 0x3c03
write_reg 0xf00c 0x00000000  # actual addr: 0x3c03
write_reg 0xf00c 0x00000000  # actual addr: 0x3c03
write_reg 0xf00c 0x00000000  # actual addr: 0x3c03
write_reg 0xf00c 0x00000000  # actual addr: 0x3c03
write_reg 0xf00c 0x00000000  # actual addr: 0x3c03
write_reg 0xf00c 0x00000000  # actual addr: 0x3c03
write_reg 0xf00c 0x00000000  # actual addr: 0x3c03
write_reg 0xf00c 0x00000000  # actual addr: 0x3c03
write_reg 0xf00c 0x00000000  # actual addr: 0x3c03
write_reg 0xf00c 0x00000000  # actual addr: 0x3c03
write_reg 0xf00c 0x00000000  # actual addr: 0x3c03
write_reg 0xf00c 0x00000000  # actual addr: 0x3c03
write_reg 0xf00c 0x00000000  # actual addr: 0x3c03
write_reg 0xf00c 0x00000000  # actual addr: 0x3c03
write_reg 0xf00c 0x00000000  # actual addr: 0x3c03
write_reg 0xf00c 0x00000000  # actual addr: 0x3c03
write_reg 0xf00c 0x00000000  # actual addr: 0x3c03
write_reg 0xf00c 0x00000000  # actual addr: 0x3c03
write_reg 0xf00c 0x00000000  # actual addr: 0x3c03
write_reg 0xf00c 0x00000000  # actual addr: 0x3c03
write_reg 0xf00c 0x00000000  # actual addr: 0x3c03
write_reg 0xf00c 0x00000000  # actual addr: 0x3c03
write_reg 0xf00c 0x00000000  # actual addr: 0x3c03
write_reg 0xf00c 0x00000000  # actual addr: 0x3c03
write_reg 0xf00c 0x00000000  # actual addr: 0x3c03
write_reg 0xf00c 0x00000000  # actual addr: 0x3c03
write_reg 0xf00c 0x00000000  # actual addr: 0x3c03
write_reg 0xf00c 0x00000000  # actual addr: 0x3c03
write_reg 0xf00c 0x00000000  # actual addr: 0x3c03
write_reg 0xf00c 0x00000000  # actual addr: 0x3c03
write_reg 0xf00c 0x00000000  # actual addr: 0x3c03
write_reg 0xf00c 0x00000000  # actual addr: 0x3c03
write_reg 0xf00c 0x00000000  # actual addr: 0x3c03
write_reg 0xf00c 0x00000000  # actual addr: 0x3c03
write_reg 0xf00c 0x00000000  # actual addr: 0x3c03
write_reg 0xf00c 0x00000000  # actual addr: 0x3c03
write_reg 0xf00c 0x00000000  # actual addr: 0x3c03
write_reg 0xf00c 0x00000000  # actual addr: 0x3c03
write_reg 0xf00c 0x00000000  # actual addr: 0x3c03
write_reg 0xf00c 0x00000000  # actual addr: 0x3c03
write_reg 0xf00c 0x00000000  # actual addr: 0x3c03
write_reg 0xf00c 0x00000000  # actual addr: 0x3c03
write_reg 0xf00c 0x00000000  # actual addr: 0x3c03
write_reg 0xf00c 0x00000000  # actual addr: 0x3c03
write_reg 0xf00c 0x00000000  # actual addr: 0x3c03
write_reg 0xf00c 0x00000000  # actual addr: 0x3c03
write_reg 0xf00c 0x00000000  # actual addr: 0x3c03
write_reg 0xf00c 0x00000000  # actual addr: 0x3c03
write_reg 0xf00c 0x00000000  # actual addr: 0x3c03
write_reg 0xf00c 0x00000000  # actual addr: 0x3c03
write_reg 0xf00c 0x00000000  # actual addr: 0x3c03
write_reg 0xf00c 0x00000000  # actual addr: 0x3c03
write_reg 0xf00c 0x00000000  # actual addr: 0x3c03
write_reg 0xf00c 0x00000000  # actual addr: 0x3c03
write_reg 0xf00c 0x00000000  # actual addr: 0x3c03
write_reg 0xf00c 0x00000000  # actual addr: 0x3c03
write_reg 0xf00c 0x00000000  # actual addr: 0x3c03
write_reg 0xf00c 0x00000000  # actual addr: 0x3c03
write_reg 0xf00c 0x00000000  # actual addr: 0x3c03
write_reg 0xf00c 0x00000000  # actual addr: 0x3c03
write_reg 0xf00c 0x00000000  # actual addr: 0x3c03
write_reg 0xf00c 0x00000000  # actual addr: 0x3c03
write_reg 0xf00c 0x00000000  # actual addr: 0x3c03
write_reg 0xf00c 0x00000000  # actual addr: 0x3c03
write_reg 0xf00c 0x00000000  # actual addr: 0x3c03
write_reg 0xf00c 0x00000000  # actual addr: 0x3c03
write_reg 0xf00c 0x00000000  # actual addr: 0x3c03
write_reg 0xf00c 0x00000000  # actual addr: 0x3c03
write_reg 0xf00c 0x00000000  # actual addr: 0x3c03
write_reg 0xf00c 0x00000000  # actual addr: 0x3c03
write_reg 0xf00c 0x00000000  # actual addr: 0x3c03
write_reg 0xf00c 0x00000000  # actual addr: 0x3c03
write_reg 0xf00c 0x00000000  # actual addr: 0x3c03
write_reg 0xf00c 0x00000000  # actual addr: 0x3c03
write_reg 0xf00c 0x00000000  # actual addr: 0x3c03
write_reg 0xf00c 0x00000000  # actual addr: 0x3c03
write_reg 0xf00c 0x00000000  # actual addr: 0x3c03
write_reg 0xf00c 0x00000000  # actual addr: 0x3c03
write_reg 0xf00c 0x00000000  # actual addr: 0x3c03
write_reg 0xf00c 0x00000000  # actual addr: 0x3c03
write_reg 0xf00c 0x00000000  # actual addr: 0x3c03
write_reg 0xf00c 0x00000000  # actual addr: 0x3c03
write_reg 0xf00c 0x00000000  # actual addr: 0x3c03
write_reg 0xf00c 0x00000000  # actual addr: 0x3c03
write_reg 0xf00c 0x00000000  # actual addr: 0x3c03
write_reg 0xf00c 0x00000000  # actual addr: 0x3c03
write_reg 0xf00c 0x00000000  # actual addr: 0x3c03
write_reg 0xf00c 0x00000000  # actual addr: 0x3c03
write_reg 0xf00c 0x00000000  # actual addr: 0x3c03
write_reg 0xf00c 0x00000000  # actual addr: 0x3c03
write_reg 0xf00c 0x00000000  # actual addr: 0x3c03
write_reg 0xf00c 0x00000000  # actual addr: 0x3c03
write_reg 0xf00c 0x00000000  # actual addr: 0x3c03
write_reg 0xf00c 0x00000000  # actual addr: 0x3c03
write_reg 0xf00c 0x00000000  # actual addr: 0x3c03
write_reg 0xf00c 0x00000000  # actual addr: 0x3c03
write_reg 0xf00c 0x00000000  # actual addr: 0x3c03
write_reg 0xf00c 0x00000000  # actual addr: 0x3c03
write_reg 0xf00c 0x00000000  # actual addr: 0x3c03
write_reg 0xf00c 0x00000000  # actual addr: 0x3c03
write_reg 0xf00c 0x00000000  # actual addr: 0x3c03
write_reg 0xf00c 0x00000000  # actual addr: 0x3c03
write_reg 0xf00c 0x00000000  # actual addr: 0x3c03
write_reg 0xf00c 0x00000000  # actual addr: 0x3c03
write_reg 0xf00c 0x00000000  # actual addr: 0x3c03
write_reg 0xf00c 0x00000000  # actual addr: 0x3c03
write_reg 0xf00c 0x00000000  # actual addr: 0x3c03
write_reg 0xf00c 0x00000000  # actual addr: 0x3c03
write_reg 0xf00c 0x00000000  # actual addr: 0x3c03
write_reg 0xf00c 0x00000000  # actual addr: 0x3c03
write_reg 0xf00c 0x00000000  # actual addr: 0x3c03
write_reg 0xf00c 0x00000000  # actual addr: 0x3c03
write_reg 0xf00c 0x00000000  # actual addr: 0x3c03
write_reg 0xf00c 0x00000000  # actual addr: 0x3c03
write_reg 0xf00c 0x00000000  # actual addr: 0x3c03
write_reg 0xf00c 0x00000000  # actual addr: 0x3c03
write_reg 0xf00c 0x00000000  # actual addr: 0x3c03
write_reg 0xf00c 0x00000000  # actual addr: 0x3c03
write_reg 0xf00c 0x00000000  # actual addr: 0x3c03
write_reg 0xf00c 0x00000000  # actual addr: 0x3c03
write_reg 0xf00c 0x00000000  # actual addr: 0x3c03
write_reg 0xf00c 0x00000000  # actual addr: 0x3c03
write_reg 0xf00c 0x00000000  # actual addr: 0x3c03
write_reg 0xf00c 0x00000000  # actual addr: 0x3c03
write_reg 0xf00c 0x00000000  # actual addr: 0x3c03
write_reg 0xf00c 0x00000000  # actual addr: 0x3c03
write_reg 0xf00c 0x00000000  # actual addr: 0x3c03
write_reg 0xf00c 0x00000000  # actual addr: 0x3c03
write_reg 0xf00c 0x00000000  # actual addr: 0x3c03
write_reg 0xf00c 0x00000000  # actual addr: 0x3c03
write_reg 0xf00c 0x00000000  # actual addr: 0x3c03
write_reg 0xf00c 0x00000000  # actual addr: 0x3c03
write_reg 0xf00c 0x00000000  # actual addr: 0x3c03
write_reg 0xf00c 0x00000000  # actual addr: 0x3c03
write_reg 0xf00c 0x00000000  # actual addr: 0x3c03
write_reg 0xf00c 0x00000000  # actual addr: 0x3c03
write_reg 0xf00c 0x00000000  # actual addr: 0x3c03
write_reg 0xf00c 0x00000000  # actual addr: 0x3c03
write_reg 0xf00c 0x00000000  # actual addr: 0x3c03
write_reg 0xf00c 0x00000000  # actual addr: 0x3c03
write_reg 0xf00c 0x00000000  # actual addr: 0x3c03
write_reg 0xf00c 0x00000000  # actual addr: 0x3c03
write_reg 0xf00c 0x00000000  # actual addr: 0x3c03
write_reg 0xf00c 0x00000000  # actual addr: 0x3c03
write_reg 0xf00c 0x00000000  # actual addr: 0x3c03
write_reg 0xf00c 0x00000000  # actual addr: 0x3c03
write_reg 0xf00c 0x00000000  # actual addr: 0x3c03
write_reg 0xf00c 0x00000000  # actual addr: 0x3c03
write_reg 0xf00c 0x00000000  # actual addr: 0x3c03
write_reg 0xf00c 0x00000000  # actual addr: 0x3c03
write_reg 0xf00c 0x00000000  # actual addr: 0x3c03
write_reg 0xf00c 0x00000000  # actual addr: 0x3c03
write_reg 0xf00c 0x00000000  # actual addr: 0x3c03
write_reg 0xf00c 0x00000000  # actual addr: 0x3c03
write_reg 0xf00c 0x00000000  # actual addr: 0x3c03
write_reg 0xf00c 0x00000000  # actual addr: 0x3c03
write_reg 0xf00c 0x00000000  # actual addr: 0x3c03
write_reg 0xf00c 0x00000000  # actual addr: 0x3c03
write_reg 0xf00c 0x00000000  # actual addr: 0x3c03
write_reg 0xf00c 0x00000000  # actual addr: 0x3c03
write_reg 0xf00c 0x00000000  # actual addr: 0x3c03
write_reg 0xf00c 0x00000000  # actual addr: 0x3c03
write_reg 0xf00c 0x00000000  # actual addr: 0x3c03
write_reg 0xf00c 0x00000000  # actual addr: 0x3c03
write_reg 0xf00c 0x00000000  # actual addr: 0x3c03
write_reg 0xf00c 0x00000000  # actual addr: 0x3c03
write_reg 0xf00c 0x00000000  # actual addr: 0x3c03
write_reg 0xf00c 0x00000000  # actual addr: 0x3c03
write_reg 0xf00c 0x00000000  # actual addr: 0x3c03
write_reg 0xf00c 0x00000000  # actual addr: 0x3c03
write_reg 0xf00c 0x00000000  # actual addr: 0x3c03
write_reg 0xf00c 0x00000000  # actual addr: 0x3c03
write_reg 0xf00c 0x00000000  # actual addr: 0x3c03
write_reg 0xf00c 0x00000000  # actual addr: 0x3c03
write_reg 0xf00c 0x00000000  # actual addr: 0x3c03
write_reg 0xf00c 0x00000000  # actual addr: 0x3c03
write_reg 0xf00c 0x00000000  # actual addr: 0x3c03
write_reg 0xf00c 0x00000000  # actual addr: 0x3c03
write_reg 0xf00c 0x00000000  # actual addr: 0x3c03
write_reg 0xf00c 0x00000000  # actual addr: 0x3c03
write_reg 0xf00c 0x00000000  # actual addr: 0x3c03
write_reg 0xf00c 0x00000000  # actual addr: 0x3c03
write_reg 0xf00c 0x00000000  # actual addr: 0x3c03
write_reg 0xf00c 0x00000000  # actual addr: 0x3c03
write_reg 0xf00c 0x00000000  # actual addr: 0x3c03
write_reg 0xf00c 0x00000000  # actual addr: 0x3c03
write_reg 0xf00c 0x00000000  # actual addr: 0x3c03
write_reg 0xf00c 0x00000000  # actual addr: 0x3c03
write_reg 0xf00c 0x00000000  # actual addr: 0x3c03
write_reg 0xf00c 0x00000000  # actual addr: 0x3c03
write_reg 0xf00c 0x00000000  # actual addr: 0x3c03
write_reg 0xf00c 0x00000000  # actual addr: 0x3c03
write_reg 0xf00c 0x00000000  # actual addr: 0x3c03
write_reg 0xf00c 0x00000000  # actual addr: 0x3c03
write_reg 0xf00c 0x00000000  # actual addr: 0x3c03
write_reg 0xf00c 0x00000000  # actual addr: 0x3c03
write_reg 0xf00c 0x00000000  # actual addr: 0x3c03
write_reg 0xf00c 0x00000000  # actual addr: 0x3c03
write_reg 0xf00c 0x00000000  # actual addr: 0x3c03
write_reg 0xf00c 0x00000000  # actual addr: 0x3c03
write_reg 0xf00c 0x00000000  # actual addr: 0x3c03
write_reg 0xf00c 0x00000000  # actual addr: 0x3c03
write_reg 0xf00c 0x00000000  # actual addr: 0x3c03
write_reg 0xf00c 0x00000000  # actual addr: 0x3c03
write_reg 0xf00c 0x00000000  # actual addr: 0x3c03
write_reg 0xf00c 0x00000000  # actual addr: 0x3c03
write_reg 0xf00c 0x00000000  # actual addr: 0x3c03
write_reg 0xf00c 0x00000000  # actual addr: 0x3c03
write_reg 0xf00c 0x00000000  # actual addr: 0x3c03
write_reg 0xf00c 0x00000000  # actual addr: 0x3c03
write_reg 0xf00c 0x00000000  # actual addr: 0x3c03
write_reg 0xf00c 0x00000000  # actual addr: 0x3c03
write_reg 0xf00c 0x00000000  # actual addr: 0x3c03
write_reg 0xf00c 0x00000000  # actual addr: 0x3c03
write_reg 0xf00c 0x00000000  # actual addr: 0x3c03
write_reg 0xf00c 0x00000000  # actual addr: 0x3c03
write_reg 0xf00c 0x00000000  # actual addr: 0x3c03
write_reg 0xf00c 0x00000000  # actual addr: 0x3c03
write_reg 0xf00c 0x00000000  # actual addr: 0x3c03
write_reg 0xf00c 0x00000000  # actual addr: 0x3c03
write_reg 0xf00c 0x00000000  # actual addr: 0x3c03
write_reg 0xf00c 0x00000000  # actual addr: 0x3c03
write_reg 0xf00c 0x00000000  # actual addr: 0x3c03
write_reg 0xf00c 0x00000000  # actual addr: 0x3c03
write_reg 0xf00c 0x00000000  # actual addr: 0x3c03
write_reg 0xf00c 0x00000000  # actual addr: 0x3c03
write_reg 0xf010 0x00000000  # actual addr: 0x3c04
write_reg 0xf014 0x00800000  # actual addr: 0x3c05
write_reg 0xf018 0x00000000  # actual addr: 0x3c06
write_reg 0xf01c 0x00000000  # actual addr: 0x3c07
write_reg 0xf020 0x00000000  # actual addr: 0x3c08
write_reg 0xf024 0x00000000  # actual addr: 0x3c09
write_reg 0xf028 0x00000001  # actual addr: 0x3c0a
write_reg 0xf02c 0x00000000  # actual addr: 0x3c0b
write_reg 0xf030 0x00000001  # actual addr: 0x3c0c
write_reg 0xf034 0x00000000  # actual addr: 0x3c0d
write_reg 0xf038 0x00000000  # actual addr: 0x3c0e
write_reg 0xf040 0x00000000  # actual addr: 0x3c10
write_reg 0xf050 0xc0600000  # actual addr: 0x3c14
write_reg 0xf054 0x00000000  # actual addr: 0x3c15
write_reg 0xf058 0x00000360  # actual addr: 0x3c16
write_reg 0xf05c 0x00005b20  # actual addr: 0x3c17
write_reg 0xf060 0x00000001  # actual addr: 0x3c18
write_reg 0xf068 0x00000002  # actual addr: 0x3c1a
write_reg 0xf070 0x00000001  # actual addr: 0x3c1c
write_reg 0xf074 0x00000000  # actual addr: 0x3c1d
write_reg 0xf078 0x00000001  # actual addr: 0x3c1e
write_reg 0xf07c 0x00000000  # actual addr: 0x3c1f
write_reg 0xf080 0x00000000  # actual addr: 0x3c20
write_reg 0xf084 0x00000001  # actual addr: 0x3c21
write_reg 0xf088 0x00000000  # actual addr: 0x3c22
write_reg 0xf04c 0x00000000  # actual addr: 0x3c13
read_reg 0x9004 0xffffffff 0x00000001  # actual addr: 0x2401
write_reg 0x9004 0x00000000  # actual addr: 0x2401
write_reg 0x7004 0x00000000  # actual addr: 0x1c01
write_reg 0x8004 0x00000000  # actual addr: 0x2001
write_reg 0x6004 0x00000000  # actual addr: 0x1801
write_reg 0x5004 0x00000000  # actual addr: 0x1401
read_reg 0x9000 0xffffffff 0x00000000  # actual addr: 0x2400
read_reg 0x7000 0xffffffff 0x00000000  # actual addr: 0x1c00
read_reg 0x8000 0xffffffff 0x00000000  # actual addr: 0x2000
read_reg 0x6000 0xffffffff 0x00000000  # actual addr: 0x1800
read_reg 0x5000 0xffffffff 0x00000000  # actual addr: 0x1400
write_reg 0x900c 0x00002000  # actual addr: 0x2403
write_reg 0x9010 0x000b0036  # actual addr: 0x2404
write_reg 0x9014 0x0000005f  # actual addr: 0x2405
write_reg 0x9018 0x00000000  # actual addr: 0x2406
write_reg 0x901c 0x00000000  # actual addr: 0x2407
write_reg 0x9020 0x000006e0  # actual addr: 0x2408
write_reg 0x9024 0x00005280  # actual addr: 0x2409
write_reg 0x9028 0x00000000  # actual addr: 0x240a
write_reg 0x902c 0x00000000  # actual addr: 0x240b
write_reg 0x700c 0x00002000  # actual addr: 0x1c03
write_reg 0x800c 0x00002000  # actual addr: 0x2003
write_reg 0x600c 0x10102200  # actual addr: 0x1803
write_reg 0x6010 0x00000000  # actual addr: 0x1804
write_reg 0x6014 0x003900e2  # actual addr: 0x1805
write_reg 0x6018 0x00000002  # actual addr: 0x1806
write_reg 0x601c 0x00000000  # actual addr: 0x1807
write_reg 0x6020 0x00000000  # actual addr: 0x1808
write_reg 0x6024 0x00000038  # actual addr: 0x1809
write_reg 0x6028 0x00000000  # actual addr: 0x180a
write_reg 0x602c 0x000a000a  # actual addr: 0x180b
write_reg 0x6030 0x005f0002  # actual addr: 0x180c
write_reg 0x6034 0x00011080  # actual addr: 0x180d
write_reg 0x6038 0x00000000  # actual addr: 0x180e
write_reg 0x603c 0x000b0036  # actual addr: 0x180f
write_reg 0x6040 0x0000005f  # actual addr: 0x1810
write_reg 0x6044 0x00000293  # actual addr: 0x1811
write_reg 0x6048 0x00000039  # actual addr: 0x1812
write_reg 0x604c 0x00030003  # actual addr: 0x1813
write_reg 0x6050 0x00000000  # actual addr: 0x1814
write_reg 0x6054 0x00000000  # actual addr: 0x1815
write_reg 0x6058 0x00000000  # actual addr: 0x1816
write_reg 0x605c 0x0002000c  # actual addr: 0x1817
write_reg 0x6060 0x00000000  # actual addr: 0x1818
write_reg 0x5014 0x10102200  # actual addr: 0x1405
write_reg 0x5018 0x00100000  # actual addr: 0x1406
write_reg 0x501c 0x003900e2  # actual addr: 0x1407
write_reg 0x5020 0x00000002  # actual addr: 0x1408
write_reg 0x5024 0x003900e2  # actual addr: 0x1409
write_reg 0x502c 0x00000001  # actual addr: 0x140b
write_reg 0x5030 0x00000000  # actual addr: 0x140c
write_reg 0x5034 0xc02aa400  # actual addr: 0x140d
write_reg 0x5038 0x00000000  # actual addr: 0x140e
write_reg 0x503c 0xc02aa400  # actual addr: 0x140f
write_reg 0x5040 0x00001c60  # actual addr: 0x1410
write_reg 0x5048 0x00192920  # actual addr: 0x1412
write_reg 0x5044 0x00000000  # actual addr: 0x1411
write_reg 0x504c 0x00000001  # actual addr: 0x1413
write_reg 0x5058 0x00000000  # actual addr: 0x1416
write_reg 0x505c 0x00000000  # actual addr: 0x1417
write_reg 0x5060 0x00000038  # actual addr: 0x1418
write_reg 0x5064 0x00000000  # actual addr: 0x1419
write_reg 0x5068 0x00000000  # actual addr: 0x141a
write_reg 0x506c 0x000002d5  # actual addr: 0x141b
write_reg 0x5070 0x0000005f  # actual addr: 0x141c
write_reg 0x5074 0x00000001  # actual addr: 0x141d
write_reg 0x5078 0x00000000  # actual addr: 0x141e
write_reg 0x507c 0xd0000000  # actual addr: 0x141f
write_reg 0x5080 0x00011080  # actual addr: 0x1420
write_reg 0x5098 0x00000000  # actual addr: 0x1426
write_reg 0x50a4 0x00000000  # actual addr: 0x1429
write_reg 0x50b0 0x00030003  # actual addr: 0x142c
write_reg 0x50b4 0x00000000  # actual addr: 0x142d
write_reg 0x50b8 0x00000000  # actual addr: 0x142e
write_reg 0x50bc 0x0002000c  # actual addr: 0x142f
read_reg 0x9004 0xffffffff 0x00000000  # actual addr: 0x2401
write_reg 0x9004 0x00000001  # actual addr: 0x2401
write_reg 0x7004 0x00000001  # actual addr: 0x1c01
write_reg 0x8004 0x00000001  # actual addr: 0x2001
write_reg 0x6004 0x00000001  # actual addr: 0x1801
write_reg 0x5004 0x00000001  # actual addr: 0x1401
read_reg 0x9000 0xffffffff 0x00000000  # actual addr: 0x2400
read_reg 0x7000 0xffffffff 0x00000000  # actual addr: 0x1c00
read_reg 0x8000 0xffffffff 0x00000000  # actual addr: 0x2000
read_reg 0x6000 0xffffffff 0x00000000  # actual addr: 0x1800
read_reg 0x5000 0xffffffff 0x00000000  # actual addr: 0x1400
write_reg 0x900c 0x00002000  # actual addr: 0x2403
write_reg 0x9010 0x000b0036  # actual addr: 0x2404
write_reg 0x9014 0x0000005f  # actual addr: 0x2405
write_reg 0x9018 0x00000000  # actual addr: 0x2406
write_reg 0x901c 0x00000000  # actual addr: 0x2407
write_reg 0x9020 0x000006e0  # actual addr: 0x2408
write_reg 0x9024 0x00005280  # actual addr: 0x2409
write_reg 0x9028 0x00000000  # actual addr: 0x240a
write_reg 0x902c 0x00000000  # actual addr: 0x240b
write_reg 0x700c 0x00002000  # actual addr: 0x1c03
write_reg 0x800c 0x00002000  # actual addr: 0x2003
write_reg 0x600c 0x10102200  # actual addr: 0x1803
write_reg 0x6010 0x00000000  # actual addr: 0x1804
write_reg 0x6014 0x003900e2  # actual addr: 0x1805
write_reg 0x6018 0x00000002  # actual addr: 0x1806
write_reg 0x601c 0x00000000  # actual addr: 0x1807
write_reg 0x6020 0x00000000  # actual addr: 0x1808
write_reg 0x6024 0x00000038  # actual addr: 0x1809
write_reg 0x6028 0x00000000  # actual addr: 0x180a
write_reg 0x602c 0x000a000a  # actual addr: 0x180b
write_reg 0x6030 0x005f0002  # actual addr: 0x180c
write_reg 0x6034 0x00011080  # actual addr: 0x180d
write_reg 0x6038 0x00000000  # actual addr: 0x180e
write_reg 0x603c 0x000b0036  # actual addr: 0x180f
write_reg 0x6040 0x0000005f  # actual addr: 0x1810
write_reg 0x6044 0x00000293  # actual addr: 0x1811
write_reg 0x6048 0x00000039  # actual addr: 0x1812
write_reg 0x604c 0x00030003  # actual addr: 0x1813
write_reg 0x6050 0x00000000  # actual addr: 0x1814
write_reg 0x6054 0x00000000  # actual addr: 0x1815
write_reg 0x6058 0x00000000  # actual addr: 0x1816
write_reg 0x605c 0x0002000c  # actual addr: 0x1817
write_reg 0x6060 0x00000000  # actual addr: 0x1818
write_reg 0x5014 0x10102200  # actual addr: 0x1405
write_reg 0x5018 0x00100000  # actual addr: 0x1406
write_reg 0x501c 0x003900e2  # actual addr: 0x1407
write_reg 0x5020 0x00000002  # actual addr: 0x1408
write_reg 0x5024 0x003900e2  # actual addr: 0x1409
write_reg 0x502c 0x00000001  # actual addr: 0x140b
write_reg 0x5030 0x00000000  # actual addr: 0x140c
write_reg 0x5034 0xc02ff600  # actual addr: 0x140d
write_reg 0x5038 0x00000000  # actual addr: 0x140e
write_reg 0x503c 0xc02ff600  # actual addr: 0x140f
write_reg 0x5040 0x00001c60  # actual addr: 0x1410
write_reg 0x5048 0x00192920  # actual addr: 0x1412
write_reg 0x5044 0x00000000  # actual addr: 0x1411
write_reg 0x504c 0x00000001  # actual addr: 0x1413
write_reg 0x5058 0x00000000  # actual addr: 0x1416
write_reg 0x505c 0x00000000  # actual addr: 0x1417
write_reg 0x5060 0x00000038  # actual addr: 0x1418
write_reg 0x5064 0x00000000  # actual addr: 0x1419
write_reg 0x5068 0x00000000  # actual addr: 0x141a
write_reg 0x506c 0x000002d5  # actual addr: 0x141b
write_reg 0x5070 0x0000005f  # actual addr: 0x141c
write_reg 0x5074 0x00000001  # actual addr: 0x141d
write_reg 0x5078 0x00000000  # actual addr: 0x141e
write_reg 0x507c 0xd0000000  # actual addr: 0x141f
write_reg 0x5080 0x00011080  # actual addr: 0x1420
write_reg 0x5098 0x00000000  # actual addr: 0x1426
write_reg 0x50a4 0x00000000  # actual addr: 0x1429
write_reg 0x50b0 0x00030003  # actual addr: 0x142c
write_reg 0x50b4 0x00000000  # actual addr: 0x142d
write_reg 0x50b8 0x00000000  # actual addr: 0x142e
write_reg 0x50bc 0x0002000c  # actual addr: 0x142f
read_reg 0xb004 0xffffffff 0x00000001  # actual addr: 0x2c01
read_reg 0xa004 0xffffffff 0x00000001  # actual addr: 0x2801
write_reg 0xb004 0x00000000  # actual addr: 0x2c01
write_reg 0xa004 0x00000000  # actual addr: 0x2801
read_reg 0x4 0xffffffff 0x00000000  # actual addr: 0x0001
write_reg 0x4 0x00000000  # actual addr: 0x0001
write_reg 0xa070 0x00000000  # actual addr: 0x281c
write_reg 0xa028 0x00000000  # actual addr: 0x280a
write_reg 0xa040 0x00000000  # actual addr: 0x2810
write_reg 0xa058 0x00000000  # actual addr: 0x2816
write_reg 0xa070 0x000000a9  # actual addr: 0x281c
write_reg 0xa00c 0x00000036  # actual addr: 0x2803
write_reg 0xa010 0x0000000b  # actual addr: 0x2804
write_reg 0xa014 0x0000005f  # actual addr: 0x2805
write_reg 0xa028 0x0000002a  # actual addr: 0x280a
write_reg 0xa02c 0xd0020000  # actual addr: 0x280b
write_reg 0xa030 0x00000000  # actual addr: 0x280c
write_reg 0xa034 0x00000020  # actual addr: 0x280d
write_reg 0xa038 0x00000020  # actual addr: 0x280e
write_reg 0xa040 0x00000031  # actual addr: 0x2810
write_reg 0xa058 0x00000031  # actual addr: 0x2816
write_reg 0xb03c 0x00000036  # actual addr: 0x2c0f
write_reg 0xb040 0x0000000b  # actual addr: 0x2c10
write_reg 0xb044 0x0000005f  # actual addr: 0x2c11
write_reg 0xb04c 0x00000000  # actual addr: 0x2c13
write_reg 0xb048 0xc040a500  # actual addr: 0x2c12
write_reg 0xb050 0x000006e0  # actual addr: 0x2c14
write_reg 0xb054 0x00017a20  # actual addr: 0x2c15
write_reg 0xb058 0x00000018  # actual addr: 0x2c16
write_reg 0xb05c 0x00000001  # actual addr: 0x2c17
write_reg 0xb064 0x00000001  # actual addr: 0x2c19
write_reg 0xb06c 0x00000053  # actual addr: 0x2c1b
write_reg 0xb080 0x00000053  # actual addr: 0x2c20
write_reg 0xb0b0 0x00000001  # actual addr: 0x2c2c
write_reg 0xb0b4 0x00000001  # actual addr: 0x2c2d
write_reg 0xb0bc 0x0000000a  # actual addr: 0x2c2f
write_reg 0xb0c0 0x00000000  # actual addr: 0x2c30
write_reg 0xb0c4 0x00000001  # actual addr: 0x2c31
write_reg 0xb0c8 0x00000000  # actual addr: 0x2c32
write_reg 0xb004 0x00000000  # actual addr: 0x2c01
write_reg 0xa004 0x00000000  # actual addr: 0x2801
write_reg 0xa008 0x00000001  # actual addr: 0x2802
write_reg 0xb038 0x00000001  # actual addr: 0x2c0e
write_reg 0x9004 0x00000000  # actual addr: 0x2401
write_reg 0x7004 0x00000000  # actual addr: 0x1c01
write_reg 0x8004 0x00000000  # actual addr: 0x2001
write_reg 0x6004 0x00000000  # actual addr: 0x1801
write_reg 0x5004 0x00000000  # actual addr: 0x1401
read_reg 0x500c 0xffffffff 0x00000001  # actual addr: 0x1403
write_reg 0x9008 0x00000001  # actual addr: 0x2402
write_reg 0x7008 0x00000001  # actual addr: 0x1c02
write_reg 0x8008 0x00000001  # actual addr: 0x2002
write_reg 0x6008 0x00000001  # actual addr: 0x1802
write_reg 0x5010 0x00000001  # actual addr: 0x1404
read_reg 0xb004 0xffffffff 0x00000000  # actual addr: 0x2c01
read_reg 0xa004 0xffffffff 0x00010000  # actual addr: 0x2801
write_reg 0xb004 0x00000001  # actual addr: 0x2c01
write_reg 0xa004 0x00000001  # actual addr: 0x2801
read_reg 0x4 0xffffffff 0x00000000  # actual addr: 0x0001
write_reg 0x4 0x00000000  # actual addr: 0x0001
write_reg 0xa070 0x00000000  # actual addr: 0x281c
write_reg 0xa028 0x00000000  # actual addr: 0x280a
write_reg 0xa040 0x00000000  # actual addr: 0x2810
write_reg 0xa058 0x00000000  # actual addr: 0x2816
write_reg 0xa070 0x000000a9  # actual addr: 0x281c
write_reg 0xa00c 0x00000036  # actual addr: 0x2803
write_reg 0xa010 0x0000000b  # actual addr: 0x2804
write_reg 0xa014 0x0000005f  # actual addr: 0x2805
write_reg 0xa028 0x0000002a  # actual addr: 0x280a
write_reg 0xa02c 0xd0020000  # actual addr: 0x280b
write_reg 0xa030 0x00000000  # actual addr: 0x280c
write_reg 0xa034 0x00000020  # actual addr: 0x280d
write_reg 0xa038 0x00000020  # actual addr: 0x280e
write_reg 0xa040 0x00000031  # actual addr: 0x2810
write_reg 0xa058 0x00000031  # actual addr: 0x2816
write_reg 0xb03c 0x00000036  # actual addr: 0x2c0f
write_reg 0xb040 0x0000000b  # actual addr: 0x2c10
write_reg 0xb044 0x0000005f  # actual addr: 0x2c11
write_reg 0xb04c 0x00000000  # actual addr: 0x2c13
write_reg 0xb048 0xc040f780  # actual addr: 0x2c12
write_reg 0xb050 0x000006e0  # actual addr: 0x2c14
write_reg 0xb054 0x00017a20  # actual addr: 0x2c15
write_reg 0xb058 0x00000018  # actual addr: 0x2c16
write_reg 0xb05c 0x00000001  # actual addr: 0x2c17
write_reg 0xb064 0x00000001  # actual addr: 0x2c19
write_reg 0xb06c 0x00000053  # actual addr: 0x2c1b
write_reg 0xb080 0x00000053  # actual addr: 0x2c20
write_reg 0xb0b0 0x00000001  # actual addr: 0x2c2c
write_reg 0xb0b4 0x00000001  # actual addr: 0x2c2d
write_reg 0xb0bc 0x0000000a  # actual addr: 0x2c2f
write_reg 0xb0c0 0x00000000  # actual addr: 0x2c30
write_reg 0xb0c4 0x00000001  # actual addr: 0x2c31
write_reg 0xb0c8 0x00000000  # actual addr: 0x2c32
write_reg 0xb004 0x00000001  # actual addr: 0x2c01
write_reg 0xa004 0x00000001  # actual addr: 0x2801
write_reg 0xa008 0x00000001  # actual addr: 0x2802
write_reg 0xb038 0x00000001  # actual addr: 0x2c0e
write_reg 0x9004 0x00000001  # actual addr: 0x2401
write_reg 0x7004 0x00000001  # actual addr: 0x1c01
write_reg 0x8004 0x00000001  # actual addr: 0x2001
write_reg 0x6004 0x00000001  # actual addr: 0x1801
write_reg 0x5004 0x00000001  # actual addr: 0x1401
read_reg 0x500c 0xffffffff 0x00000001  # actual addr: 0x1403
write_reg 0x9008 0x00000001  # actual addr: 0x2402
write_reg 0x7008 0x00000001  # actual addr: 0x1c02
write_reg 0x8008 0x00000001  # actual addr: 0x2002
write_reg 0x6008 0x00000001  # actual addr: 0x1802
write_reg 0x5010 0x00000001  # actual addr: 0x1404
read_reg 0x4 0xffffffff 0x00000000  # actual addr: 0x0001
read_reg 0xc 0xffffffff 0x00040000  # actual addr: 0x0003
write_reg 0xc 0x00040000  # actual addr: 0x0003
read_reg 0x4 0xffffffff 0x00000000  # actual addr: 0x0001
read_reg 0xc 0xffffffff 0x00000000  # actual addr: 0x0003
read_reg 0x4 0xffffffff 0x00000000  # actual addr: 0x0001
read_reg 0xc 0xffffffff 0x003b0003  # actual addr: 0x0003
write_reg 0xc 0x003b0003  # actual addr: 0x0003
read_reg 0x4 0xffffffff 0x00000000  # actual addr: 0x0001
read_reg 0xc 0xffffffff 0x00000000  # actual addr: 0x0003
read_reg 0x9004 0xffffffff 0x00000001  # actual addr: 0x2401
write_reg 0x9004 0x00000000  # actual addr: 0x2401
write_reg 0x7004 0x00000000  # actual addr: 0x1c01
write_reg 0x8004 0x00000000  # actual addr: 0x2001
write_reg 0x6004 0x00000000  # actual addr: 0x1801
write_reg 0x5004 0x00000000  # actual addr: 0x1401
read_reg 0x9000 0xffffffff 0x00000000  # actual addr: 0x2400
read_reg 0x7000 0xffffffff 0x00000000  # actual addr: 0x1c00
read_reg 0x8000 0xffffffff 0x00000000  # actual addr: 0x2000
read_reg 0x6000 0xffffffff 0x00000000  # actual addr: 0x1800
read_reg 0x5000 0xffffffff 0x00000000  # actual addr: 0x1400
write_reg 0x900c 0x00002000  # actual addr: 0x2403
write_reg 0x9010 0x00060036  # actual addr: 0x2404
write_reg 0x9014 0x0000005f  # actual addr: 0x2405
write_reg 0x9018 0x00000000  # actual addr: 0x2406
write_reg 0x901c 0x00000000  # actual addr: 0x2407
write_reg 0x9020 0x000006e0  # actual addr: 0x2408
write_reg 0x9024 0x00003020  # actual addr: 0x2409
write_reg 0x9028 0x00000000  # actual addr: 0x240a
write_reg 0x902c 0x00000000  # actual addr: 0x240b
write_reg 0x700c 0x00002000  # actual addr: 0x1c03
write_reg 0x800c 0x00002000  # actual addr: 0x2003
write_reg 0x600c 0x00102200  # actual addr: 0x1803
write_reg 0x6010 0x00000000  # actual addr: 0x1804
write_reg 0x6014 0x002200e2  # actual addr: 0x1805
write_reg 0x6018 0x00000002  # actual addr: 0x1806
write_reg 0x601c 0x00000000  # actual addr: 0x1807
write_reg 0x6020 0x00000000  # actual addr: 0x1808
write_reg 0x6024 0x00000038  # actual addr: 0x1809
write_reg 0x6028 0x00000000  # actual addr: 0x180a
write_reg 0x602c 0x000a000a  # actual addr: 0x180b
write_reg 0x6030 0x005f0002  # actual addr: 0x180c
write_reg 0x6034 0x00011080  # actual addr: 0x180d
write_reg 0x6038 0x00000000  # actual addr: 0x180e
write_reg 0x603c 0x00060036  # actual addr: 0x180f
write_reg 0x6040 0x0000005f  # actual addr: 0x1810
write_reg 0x6044 0x00000180  # actual addr: 0x1811
write_reg 0x6048 0x00000022  # actual addr: 0x1812
write_reg 0x604c 0x00030003  # actual addr: 0x1813
write_reg 0x6050 0x00000000  # actual addr: 0x1814
write_reg 0x6054 0x00000000  # actual addr: 0x1815
write_reg 0x6058 0x00000000  # actual addr: 0x1816
write_reg 0x605c 0x0002000c  # actual addr: 0x1817
write_reg 0x6060 0x00000000  # actual addr: 0x1818
write_reg 0x5014 0x00102200  # actual addr: 0x1405
write_reg 0x5018 0x00100000  # actual addr: 0x1406
write_reg 0x501c 0x002200e2  # actual addr: 0x1407
write_reg 0x5020 0x00000002  # actual addr: 0x1408
write_reg 0x5024 0x002200e2  # actual addr: 0x1409
write_reg 0x502c 0x00000001  # actual addr: 0x140b
write_reg 0x5030 0x00000000  # actual addr: 0x140c
write_reg 0x5034 0xc0354800  # actual addr: 0x140d
write_reg 0x5038 0x00000000  # actual addr: 0x140e
write_reg 0x503c 0xc0354800  # actual addr: 0x140f
write_reg 0x5040 0x00001c60  # actual addr: 0x1410
write_reg 0x5048 0x00192920  # actual addr: 0x1412
write_reg 0x5044 0x00000000  # actual addr: 0x1411
write_reg 0x504c 0x00000001  # actual addr: 0x1413
write_reg 0x5058 0x00000000  # actual addr: 0x1416
write_reg 0x505c 0x00000000  # actual addr: 0x1417
write_reg 0x5060 0x00000038  # actual addr: 0x1418
write_reg 0x5064 0x00000000  # actual addr: 0x1419
write_reg 0x5068 0x00000000  # actual addr: 0x141a
write_reg 0x506c 0x000002d5  # actual addr: 0x141b
write_reg 0x5070 0x0000005f  # actual addr: 0x141c
write_reg 0x5074 0x00000001  # actual addr: 0x141d
write_reg 0x5078 0x00000000  # actual addr: 0x141e
write_reg 0x507c 0xd0000000  # actual addr: 0x141f
write_reg 0x5080 0x00011080  # actual addr: 0x1420
write_reg 0x5098 0x00000000  # actual addr: 0x1426
write_reg 0x50a4 0x00000000  # actual addr: 0x1429
write_reg 0x50b0 0x00030003  # actual addr: 0x142c
write_reg 0x50b4 0x00000000  # actual addr: 0x142d
write_reg 0x50b8 0x00000000  # actual addr: 0x142e
write_reg 0x50bc 0x0002000c  # actual addr: 0x142f
read_reg 0x9004 0xffffffff 0x00000000  # actual addr: 0x2401
write_reg 0x9004 0x00000001  # actual addr: 0x2401
write_reg 0x7004 0x00000001  # actual addr: 0x1c01
write_reg 0x8004 0x00000001  # actual addr: 0x2001
write_reg 0x6004 0x00000001  # actual addr: 0x1801
write_reg 0x5004 0x00000001  # actual addr: 0x1401
read_reg 0x9000 0xffffffff 0x00000000  # actual addr: 0x2400
read_reg 0x7000 0xffffffff 0x00000000  # actual addr: 0x1c00
read_reg 0x8000 0xffffffff 0x00000000  # actual addr: 0x2000
read_reg 0x6000 0xffffffff 0x00000000  # actual addr: 0x1800
read_reg 0x5000 0xffffffff 0x00000000  # actual addr: 0x1400
write_reg 0x900c 0x00002000  # actual addr: 0x2403
write_reg 0x9010 0x001a001a  # actual addr: 0x2404
write_reg 0x9014 0x000000ff  # actual addr: 0x2405
write_reg 0x9018 0x00000000  # actual addr: 0x2406
write_reg 0x901c 0x00000000  # actual addr: 0x2407
write_reg 0x9020 0x00000360  # actual addr: 0x2408
write_reg 0x9024 0x00005b20  # actual addr: 0x2409
write_reg 0x9028 0x00000000  # actual addr: 0x240a
write_reg 0x902c 0x00000000  # actual addr: 0x240b
write_reg 0x700c 0x00002000  # actual addr: 0x1c03
write_reg 0x800c 0x00002000  # actual addr: 0x2003
write_reg 0x600c 0x00002200  # actual addr: 0x1803
write_reg 0x6010 0x00000000  # actual addr: 0x1804
write_reg 0x6014 0x001a001a  # actual addr: 0x1805
write_reg 0x6018 0x0000005f  # actual addr: 0x1806
write_reg 0x601c 0x00000000  # actual addr: 0x1807
write_reg 0x6020 0x00000000  # actual addr: 0x1808
write_reg 0x6024 0x00000028  # actual addr: 0x1809
write_reg 0x6028 0x00000000  # actual addr: 0x180a
write_reg 0x602c 0x00040004  # actual addr: 0x180b
write_reg 0x6030 0x00ff005f  # actual addr: 0x180c
write_reg 0x6034 0x0012c000  # actual addr: 0x180d
write_reg 0x6038 0x00000000  # actual addr: 0x180e
write_reg 0x603c 0x001a001a  # actual addr: 0x180f
write_reg 0x6040 0x000000ff  # actual addr: 0x1810
write_reg 0x6044 0x000002d8  # actual addr: 0x1811
write_reg 0x6048 0x0000001a  # actual addr: 0x1812
write_reg 0x604c 0x00000000  # actual addr: 0x1813
write_reg 0x6050 0x00000000  # actual addr: 0x1814
write_reg 0x6054 0x00020002  # actual addr: 0x1815
write_reg 0x6058 0x00000000  # actual addr: 0x1816
write_reg 0x605c 0x00050004  # actual addr: 0x1817
write_reg 0x6060 0x00000000  # actual addr: 0x1818
write_reg 0x5014 0x00002200  # actual addr: 0x1405
write_reg 0x5018 0x00100000  # actual addr: 0x1406
write_reg 0x501c 0x001a001a  # actual addr: 0x1407
write_reg 0x5020 0x0000005f  # actual addr: 0x1408
write_reg 0x5024 0x001a001a  # actual addr: 0x1409
write_reg 0x502c 0x00000001  # actual addr: 0x140b
write_reg 0x5030 0x00000000  # actual addr: 0x140c
write_reg 0x5034 0xc0600000  # actual addr: 0x140d
write_reg 0x5038 0x00000000  # actual addr: 0x140e
write_reg 0x503c 0xc0600000  # actual addr: 0x140f
write_reg 0x5040 0x00000360  # actual addr: 0x1410
write_reg 0x5048 0x00005b20  # actual addr: 0x1412
write_reg 0x5044 0x00000000  # actual addr: 0x1411
write_reg 0x504c 0x00010001  # actual addr: 0x1413
write_reg 0x5058 0x00000000  # actual addr: 0x1416
write_reg 0x505c 0x00000000  # actual addr: 0x1417
write_reg 0x5060 0x00000028  # actual addr: 0x1418
write_reg 0x5064 0x00000000  # actual addr: 0x1419
write_reg 0x5068 0x00000000  # actual addr: 0x141a
write_reg 0x506c 0x000012bf  # actual addr: 0x141b
write_reg 0x5070 0x000000ff  # actual addr: 0x141c
write_reg 0x5074 0x00000001  # actual addr: 0x141d
write_reg 0x5078 0x00000000  # actual addr: 0x141e
write_reg 0x507c 0xd0200000  # actual addr: 0x141f
write_reg 0x5080 0x0012c000  # actual addr: 0x1420
write_reg 0x5098 0x00000000  # actual addr: 0x1426
write_reg 0x50a4 0x00000000  # actual addr: 0x1429
write_reg 0x50b0 0x00000000  # actual addr: 0x142c
write_reg 0x50b4 0x02020202  # actual addr: 0x142d
write_reg 0x50b8 0x00000000  # actual addr: 0x142e
write_reg 0x50bc 0x00050004  # actual addr: 0x142f
read_reg 0xb004 0xffffffff 0x00000001  # actual addr: 0x2c01
read_reg 0xa004 0xffffffff 0x00000001  # actual addr: 0x2801
write_reg 0xb004 0x00000000  # actual addr: 0x2c01
write_reg 0xa004 0x00000000  # actual addr: 0x2801
read_reg 0x4 0xffffffff 0x00000000  # actual addr: 0x0001
write_reg 0x4 0x00000000  # actual addr: 0x0001
write_reg 0xa070 0x00000000  # actual addr: 0x281c
write_reg 0xa028 0x00000000  # actual addr: 0x280a
write_reg 0xa040 0x00000000  # actual addr: 0x2810
write_reg 0xa058 0x00000000  # actual addr: 0x2816
write_reg 0xa070 0x000000a9  # actual addr: 0x281c
write_reg 0xa00c 0x00000036  # actual addr: 0x2803
write_reg 0xa010 0x00000006  # actual addr: 0x2804
write_reg 0xa014 0x0000005f  # actual addr: 0x2805
write_reg 0xa028 0x0000002a  # actual addr: 0x280a
write_reg 0xa02c 0xd0020000  # actual addr: 0x280b
write_reg 0xa030 0x00000000  # actual addr: 0x280c
write_reg 0xa034 0x00000020  # actual addr: 0x280d
write_reg 0xa038 0x00000020  # actual addr: 0x280e
write_reg 0xa040 0x00000031  # actual addr: 0x2810
write_reg 0xa058 0x00000031  # actual addr: 0x2816
write_reg 0xb03c 0x00000036  # actual addr: 0x2c0f
write_reg 0xb040 0x00000006  # actual addr: 0x2c10
write_reg 0xb044 0x0000005f  # actual addr: 0x2c11
write_reg 0xb04c 0x00000000  # actual addr: 0x2c13
write_reg 0xb048 0xc0414a00  # actual addr: 0x2c12
write_reg 0xb050 0x000006e0  # actual addr: 0x2c14
write_reg 0xb054 0x00017a20  # actual addr: 0x2c15
write_reg 0xb058 0x00000018  # actual addr: 0x2c16
write_reg 0xb05c 0x00000001  # actual addr: 0x2c17
write_reg 0xb064 0x00000001  # actual addr: 0x2c19
write_reg 0xb06c 0x00000053  # actual addr: 0x2c1b
write_reg 0xb080 0x00000053  # actual addr: 0x2c20
write_reg 0xb0b0 0x00000001  # actual addr: 0x2c2c
write_reg 0xb0b4 0x00000001  # actual addr: 0x2c2d
write_reg 0xb0bc 0x0000000a  # actual addr: 0x2c2f
write_reg 0xb0c0 0x00000000  # actual addr: 0x2c30
write_reg 0xb0c4 0x00000001  # actual addr: 0x2c31
write_reg 0xb0c8 0x00000000  # actual addr: 0x2c32
write_reg 0xb004 0x00000000  # actual addr: 0x2c01
write_reg 0xa004 0x00000000  # actual addr: 0x2801
write_reg 0xa008 0x00000001  # actual addr: 0x2802
write_reg 0xb038 0x00000001  # actual addr: 0x2c0e
write_reg 0x9004 0x00000000  # actual addr: 0x2401
write_reg 0x7004 0x00000000  # actual addr: 0x1c01
write_reg 0x8004 0x00000000  # actual addr: 0x2001
write_reg 0x6004 0x00000000  # actual addr: 0x1801
write_reg 0x5004 0x00000000  # actual addr: 0x1401
read_reg 0x500c 0xffffffff 0x00000001  # actual addr: 0x1403
write_reg 0x9008 0x00000001  # actual addr: 0x2402
write_reg 0x7008 0x00000001  # actual addr: 0x1c02
write_reg 0x8008 0x00000001  # actual addr: 0x2002
write_reg 0x6008 0x00000001  # actual addr: 0x1802
write_reg 0x5010 0x00000001  # actual addr: 0x1404
read_reg 0xb004 0xffffffff 0x00000000  # actual addr: 0x2c01
read_reg 0xa004 0xffffffff 0x00010000  # actual addr: 0x2801
write_reg 0xb004 0x00000001  # actual addr: 0x2c01
write_reg 0xa004 0x00000001  # actual addr: 0x2801
read_reg 0x4 0xffffffff 0x00000000  # actual addr: 0x0001
write_reg 0x4 0x00000000  # actual addr: 0x0001
write_reg 0xa070 0x00000000  # actual addr: 0x281c
write_reg 0xa028 0x00000000  # actual addr: 0x280a
write_reg 0xa040 0x00000000  # actual addr: 0x2810
write_reg 0xa058 0x00000000  # actual addr: 0x2816
write_reg 0xa070 0x000000a9  # actual addr: 0x281c
write_reg 0xa00c 0x0000001a  # actual addr: 0x2803
write_reg 0xa010 0x0000001a  # actual addr: 0x2804
write_reg 0xa014 0x000000ff  # actual addr: 0x2805
write_reg 0xa028 0x0000002a  # actual addr: 0x280a
write_reg 0xa02c 0xd0021000  # actual addr: 0x280b
write_reg 0xa030 0x00000000  # actual addr: 0x280c
write_reg 0xa034 0x00000020  # actual addr: 0x280d
write_reg 0xa038 0x00000020  # actual addr: 0x280e
write_reg 0xa040 0x00000031  # actual addr: 0x2810
write_reg 0xa058 0x00000031  # actual addr: 0x2816
write_reg 0xb03c 0x0000001a  # actual addr: 0x2c0f
write_reg 0xb040 0x0000001a  # actual addr: 0x2c10
write_reg 0xb044 0x000000ff  # actual addr: 0x2c11
write_reg 0xb04c 0x00000000  # actual addr: 0x2c13
write_reg 0xb048 0xc0680000  # actual addr: 0x2c12
write_reg 0xb050 0x00000360  # actual addr: 0x2c14
write_reg 0xb054 0x00005b20  # actual addr: 0x2c15
write_reg 0xb058 0x00000018  # actual addr: 0x2c16
write_reg 0xb05c 0x00000001  # actual addr: 0x2c17
write_reg 0xb064 0x00000001  # actual addr: 0x2c19
write_reg 0xb06c 0x00000053  # actual addr: 0x2c1b
write_reg 0xb080 0x00000053  # actual addr: 0x2c20
write_reg 0xb0b0 0x00000001  # actual addr: 0x2c2c
write_reg 0xb0b4 0x00000001  # actual addr: 0x2c2d
write_reg 0xb0bc 0x0000000a  # actual addr: 0x2c2f
write_reg 0xb0c0 0x00000000  # actual addr: 0x2c30
write_reg 0xb0c4 0x00000001  # actual addr: 0x2c31
write_reg 0xb0c8 0x00000000  # actual addr: 0x2c32
write_reg 0xb004 0x00000001  # actual addr: 0x2c01
write_reg 0xa004 0x00000001  # actual addr: 0x2801
write_reg 0xa008 0x00000001  # actual addr: 0x2802
write_reg 0xb038 0x00000001  # actual addr: 0x2c0e
read_reg 0x4 0xffffffff 0x00000000  # actual addr: 0x0001
read_reg 0xc 0xffffffff 0x00040000  # actual addr: 0x0003
write_reg 0xc 0x00040000  # actual addr: 0x0003
read_reg 0x4 0xffffffff 0x00000000  # actual addr: 0x0001
read_reg 0xc 0xffffffff 0x00000000  # actual addr: 0x0003
read_reg 0x4 0xffffffff 0x00000000  # actual addr: 0x0001
read_reg 0xc 0xffffffff 0x00110001  # actual addr: 0x0003
write_reg 0xc 0x00110001  # actual addr: 0x0003
read_reg 0x4 0xffffffff 0x00000000  # actual addr: 0x0001
read_reg 0xc 0xffffffff 0x00000000  # actual addr: 0x0003
read_reg 0x9004 0xffffffff 0x00010000  # actual addr: 0x2401
write_reg 0x9004 0x00000000  # actual addr: 0x2401
write_reg 0x7004 0x00000000  # actual addr: 0x1c01
write_reg 0x8004 0x00000000  # actual addr: 0x2001
write_reg 0x6004 0x00000000  # actual addr: 0x1801
write_reg 0x5004 0x00000000  # actual addr: 0x1401
read_reg 0x9000 0xffffffff 0x00000000  # actual addr: 0x2400
read_reg 0x7000 0xffffffff 0x00000000  # actual addr: 0x1c00
read_reg 0x8000 0xffffffff 0x00000000  # actual addr: 0x2000
read_reg 0x6000 0xffffffff 0x00000000  # actual addr: 0x1800
read_reg 0x5000 0xffffffff 0x00000000  # actual addr: 0x1400
write_reg 0x900c 0x00002000  # actual addr: 0x2403
write_reg 0x9010 0x000c000c  # actual addr: 0x2404
write_reg 0x9014 0x0000017f  # actual addr: 0x2405
write_reg 0x9018 0x00000000  # actual addr: 0x2406
write_reg 0x901c 0x00000000  # actual addr: 0x2407
write_reg 0x9020 0x000001a0  # actual addr: 0x2408
write_reg 0x9024 0x00001520  # actual addr: 0x2409
write_reg 0x9028 0x00000000  # actual addr: 0x240a
write_reg 0x902c 0x00000000  # actual addr: 0x240b
write_reg 0x700c 0x00002000  # actual addr: 0x1c03
write_reg 0x800c 0x00002000  # actual addr: 0x2003
write_reg 0x600c 0x00002200  # actual addr: 0x1803
write_reg 0x6010 0x00000000  # actual addr: 0x1804
write_reg 0x6014 0x000c000c  # actual addr: 0x1805
write_reg 0x6018 0x000000ff  # actual addr: 0x1806
write_reg 0x601c 0x00000000  # actual addr: 0x1807
write_reg 0x6020 0x00000000  # actual addr: 0x1808
write_reg 0x6024 0x00000033  # actual addr: 0x1809
write_reg 0x6028 0x00000000  # actual addr: 0x180a
write_reg 0x602c 0x00020002  # actual addr: 0x180b
write_reg 0x6030 0x017f00ff  # actual addr: 0x180c
write_reg 0x6034 0x001b0000  # actual addr: 0x180d
write_reg 0x6038 0x00000000  # actual addr: 0x180e
write_reg 0x603c 0x000c000c  # actual addr: 0x180f
write_reg 0x6040 0x0000017f  # actual addr: 0x1810
write_reg 0x6044 0x000000a8  # actual addr: 0x1811
write_reg 0x6048 0x0000000c  # actual addr: 0x1812
write_reg 0x604c 0x00000000  # actual addr: 0x1813
write_reg 0x6050 0x00000000  # actual addr: 0x1814
write_reg 0x6054 0x00010001  # actual addr: 0x1815
write_reg 0x6058 0x00000000  # actual addr: 0x1816
write_reg 0x605c 0x00050002  # actual addr: 0x1817
write_reg 0x6060 0x00000000  # actual addr: 0x1818
write_reg 0x5014 0x00002200  # actual addr: 0x1405
write_reg 0x5018 0x00100000  # actual addr: 0x1406
write_reg 0x501c 0x000c000c  # actual addr: 0x1407
write_reg 0x5020 0x000000ff  # actual addr: 0x1408
write_reg 0x5024 0x000c000c  # actual addr: 0x1409
write_reg 0x502c 0x00000001  # actual addr: 0x140b
write_reg 0x5030 0x00000000  # actual addr: 0x140c
write_reg 0x5034 0xc0680000  # actual addr: 0x140d
write_reg 0x5038 0x00000000  # actual addr: 0x140e
write_reg 0x503c 0xc0680000  # actual addr: 0x140f
write_reg 0x5040 0x000001a0  # actual addr: 0x1410
write_reg 0x5048 0x00001520  # actual addr: 0x1412
write_reg 0x5044 0x00000000  # actual addr: 0x1411
write_reg 0x504c 0x00010001  # actual addr: 0x1413
write_reg 0x5058 0x00000000  # actual addr: 0x1416
write_reg 0x505c 0x00000000  # actual addr: 0x1417
write_reg 0x5060 0x00000033  # actual addr: 0x1418
write_reg 0x5064 0x00000000  # actual addr: 0x1419
write_reg 0x5068 0x00000000  # actual addr: 0x141a
write_reg 0x506c 0x000011ff  # actual addr: 0x141b
write_reg 0x5070 0x0000017f  # actual addr: 0x141c
write_reg 0x5074 0x00000001  # actual addr: 0x141d
write_reg 0x5078 0x00000000  # actual addr: 0x141e
write_reg 0x507c 0xd0400000  # actual addr: 0x141f
write_reg 0x5080 0x001b0000  # actual addr: 0x1420
write_reg 0x5098 0x00000000  # actual addr: 0x1426
write_reg 0x50a4 0x00000000  # actual addr: 0x1429
write_reg 0x50b0 0x00000000  # actual addr: 0x142c
write_reg 0x50b4 0x01010101  # actual addr: 0x142d
write_reg 0x50b8 0x00000000  # actual addr: 0x142e
write_reg 0x50bc 0x00050002  # actual addr: 0x142f
write_reg 0xf004 0x00000000  # actual addr: 0x3c01
write_reg 0xe004 0x00000000  # actual addr: 0x3801
write_reg 0xe008 0x00000001  # actual addr: 0x3802
write_reg 0xf048 0x00000001  # actual addr: 0x3c12
read_reg 0xb004 0xffffffff 0x00010001  # actual addr: 0x2c01
read_reg 0xa004 0xffffffff 0x00000001  # actual addr: 0x2801
write_reg 0xb004 0x00000000  # actual addr: 0x2c01
write_reg 0xa004 0x00000000  # actual addr: 0x2801
read_reg 0x4 0xffffffff 0x00000000  # actual addr: 0x0001
write_reg 0x4 0x00000000  # actual addr: 0x0001
write_reg 0xa070 0x00000000  # actual addr: 0x281c
write_reg 0xa028 0x00000000  # actual addr: 0x280a
write_reg 0xa040 0x00000000  # actual addr: 0x2810
write_reg 0xa058 0x00000000  # actual addr: 0x2816
write_reg 0xa070 0x000000a9  # actual addr: 0x281c
write_reg 0xa00c 0x0000000c  # actual addr: 0x2803
write_reg 0xa010 0x0000000c  # actual addr: 0x2804
write_reg 0xa014 0x0000017f  # actual addr: 0x2805
write_reg 0xa028 0x0000002a  # actual addr: 0x280a
write_reg 0xa02c 0xd0022000  # actual addr: 0x280b
write_reg 0xa030 0x00000000  # actual addr: 0x280c
write_reg 0xa034 0x00000020  # actual addr: 0x280d
write_reg 0xa038 0x00000020  # actual addr: 0x280e
write_reg 0xa040 0x00000031  # actual addr: 0x2810
write_reg 0xa058 0x00000031  # actual addr: 0x2816
write_reg 0xb03c 0x0000000c  # actual addr: 0x2c0f
write_reg 0xb040 0x0000000c  # actual addr: 0x2c10
write_reg 0xb044 0x0000017f  # actual addr: 0x2c11
write_reg 0xb04c 0x00000000  # actual addr: 0x2c13
write_reg 0xb048 0xc06a0000  # actual addr: 0x2c12
write_reg 0xb050 0x000001a0  # actual addr: 0x2c14
write_reg 0xb054 0x00001520  # actual addr: 0x2c15
write_reg 0xb058 0x00000018  # actual addr: 0x2c16
write_reg 0xb05c 0x00000001  # actual addr: 0x2c17
write_reg 0xb064 0x00000001  # actual addr: 0x2c19
write_reg 0xb06c 0x00000053  # actual addr: 0x2c1b
write_reg 0xb080 0x00000053  # actual addr: 0x2c20
write_reg 0xb0b0 0x00000001  # actual addr: 0x2c2c
write_reg 0xb0b4 0x00000001  # actual addr: 0x2c2d
write_reg 0xb0bc 0x0000000a  # actual addr: 0x2c2f
write_reg 0xb0c0 0x00000000  # actual addr: 0x2c30
write_reg 0xb0c4 0x00000001  # actual addr: 0x2c31
write_reg 0xb0c8 0x00000000  # actual addr: 0x2c32
write_reg 0xb004 0x00000000  # actual addr: 0x2c01
write_reg 0xa004 0x00000000  # actual addr: 0x2801
write_reg 0xa008 0x00000001  # actual addr: 0x2802
write_reg 0xb038 0x00000001  # actual addr: 0x2c0e
read_reg 0x4 0xffffffff 0x00000000  # actual addr: 0x0001
read_reg 0xc 0xffffffff 0x00000004  # actual addr: 0x0003
write_reg 0xc 0x00000004  # actual addr: 0x0003
read_reg 0x4 0xffffffff 0x00000000  # actual addr: 0x0001
read_reg 0xc 0xffffffff 0x00000000  # actual addr: 0x0003
write_reg 0xd004 0x00000000  # actual addr: 0x3401
write_reg 0xc004 0x00000000  # actual addr: 0x3001
write_reg 0xc008 0x00000001  # actual addr: 0x3002
write_reg 0xd008 0x00000001  # actual addr: 0x3402
read_reg 0x4 0xffffffff 0x00000000  # actual addr: 0x0001
read_reg 0xc 0xffffffff 0x00000010  # actual addr: 0x0003
write_reg 0xc 0x00000010  # actual addr: 0x0003
read_reg 0x4 0xffffffff 0x00000000  # actual addr: 0x0001
read_reg 0xc 0xffffffff 0x00000000  # actual addr: 0x0003
write_reg 0x9004 0x00000001  # actual addr: 0x2401
write_reg 0x7004 0x00000001  # actual addr: 0x1c01
write_reg 0x8004 0x00000001  # actual addr: 0x2001
write_reg 0x6004 0x00000001  # actual addr: 0x1801
write_reg 0x5004 0x00000001  # actual addr: 0x1401
read_reg 0x500c 0xffffffff 0x00000001  # actual addr: 0x1403
write_reg 0x9008 0x00000001  # actual addr: 0x2402
write_reg 0x7008 0x00000001  # actual addr: 0x1c02
write_reg 0x8008 0x00000001  # actual addr: 0x2002
write_reg 0x6008 0x00000001  # actual addr: 0x1802
write_reg 0x5010 0x00000001  # actual addr: 0x1404
read_reg 0xd004 0xffffffff 0x00010000  # actual addr: 0x3401
read_reg 0xc004 0xffffffff 0x00010000  # actual addr: 0x3001
write_reg 0xd004 0x00000000  # actual addr: 0x3401
write_reg 0xc004 0x00000000  # actual addr: 0x3001
read_reg 0x4 0xffffffff 0x00000000  # actual addr: 0x0001
write_reg 0x4 0x00000000  # actual addr: 0x0001
write_reg 0xc00c 0x0000000c  # actual addr: 0x3003
write_reg 0xc010 0x0000000c  # actual addr: 0x3004
write_reg 0xc014 0x000000ff  # actual addr: 0x3005
write_reg 0xc020 0x00000000  # actual addr: 0x3008
write_reg 0xc01c 0xc06a0000  # actual addr: 0x3007
write_reg 0xc024 0x000001a0  # actual addr: 0x3009
write_reg 0xc028 0x00001520  # actual addr: 0x300a
write_reg 0xc030 0x00000002  # actual addr: 0x300c
write_reg 0xc02c 0x00000001  # actual addr: 0x300b
write_reg 0xc034 0x00000000  # actual addr: 0x300d
write_reg 0xc038 0x00000012  # actual addr: 0x300e
write_reg 0xc03c 0x00000000  # actual addr: 0x300f
write_reg 0xc040 0x00000000  # actual addr: 0x3010
write_reg 0xd00c 0x0000000c  # actual addr: 0x3403
write_reg 0xd010 0x0000000c  # actual addr: 0x3404
write_reg 0xd014 0x000000ff  # actual addr: 0x3405
write_reg 0xd018 0x00000005  # actual addr: 0x3406
write_reg 0xd01c 0x00000005  # actual addr: 0x3407
write_reg 0xd020 0x000000ff  # actual addr: 0x3408
write_reg 0xd024 0x00000011  # actual addr: 0x3409
write_reg 0xd02c 0x00000000  # actual addr: 0x340b
write_reg 0xd030 0x00000000  # actual addr: 0x340c
write_reg 0xd034 0x00110202  # actual addr: 0x340d
write_reg 0xd038 0x00007555  # actual addr: 0x340e
write_reg 0xd03c 0x00007555  # actual addr: 0x340f
write_reg 0xd040 0x00000000  # actual addr: 0x3410
write_reg 0xd044 0x00000000  # actual addr: 0x3411
write_reg 0xd048 0x00000000  # actual addr: 0x3412
write_reg 0xd04c 0x00000000  # actual addr: 0x3413
write_reg 0xd050 0x00000000  # actual addr: 0x3414
write_reg 0xd054 0x00000000  # actual addr: 0x3415
write_reg 0xd058 0x00000000  # actual addr: 0x3416
write_reg 0xd05c 0x00000000  # actual addr: 0x3417
write_reg 0xd068 0x000001a0  # actual addr: 0x341a
write_reg 0xd06c 0x00001520  # actual addr: 0x341b
write_reg 0xd070 0xc0680000  # actual addr: 0x341c
write_reg 0xd074 0x00000000  # actual addr: 0x341d
write_reg 0xd078 0x000000c0  # actual addr: 0x341e
write_reg 0xd07c 0x00000480  # actual addr: 0x341f
write_reg 0xd080 0x00000001  # actual addr: 0x3420
write_reg 0xd084 0x00000002  # actual addr: 0x3421
read_reg 0x4 0xffffffff 0x00000000  # actual addr: 0x0001
read_reg 0xc 0xffffffff 0x002a0002  # actual addr: 0x0003
write_reg 0xc 0x002a0002  # actual addr: 0x0003
read_reg 0x4 0xffffffff 0x00000000  # actual addr: 0x0001
read_reg 0xc 0xffffffff 0x00000000  # actual addr: 0x0003
read_reg 0x9004 0xffffffff 0x00000001  # actual addr: 0x2401
write_reg 0x9004 0x00000001  # actual addr: 0x2401
write_reg 0x7004 0x00000001  # actual addr: 0x1c01
write_reg 0x8004 0x00000001  # actual addr: 0x2001
write_reg 0x6004 0x00000001  # actual addr: 0x1801
write_reg 0x5004 0x00000001  # actual addr: 0x1401
read_reg 0x9000 0xffffffff 0x00000000  # actual addr: 0x2400
read_reg 0x7000 0xffffffff 0x00000000  # actual addr: 0x1c00
read_reg 0x8000 0xffffffff 0x00000000  # actual addr: 0x2000
read_reg 0x6000 0xffffffff 0x00000000  # actual addr: 0x1800
read_reg 0x5000 0xffffffff 0x00000000  # actual addr: 0x1400
write_reg 0x900c 0x00002000  # actual addr: 0x2403
write_reg 0x9010 0x000c000c  # actual addr: 0x2404
write_reg 0x9014 0x0000017f  # actual addr: 0x2405
write_reg 0x9018 0x00000000  # actual addr: 0x2406
write_reg 0x901c 0x00000000  # actual addr: 0x2407
write_reg 0x9020 0x000001a0  # actual addr: 0x2408
write_reg 0x9024 0x00001520  # actual addr: 0x2409
write_reg 0x9028 0x00000000  # actual addr: 0x240a
write_reg 0x902c 0x00000000  # actual addr: 0x240b
write_reg 0x700c 0x00002000  # actual addr: 0x1c03
write_reg 0x800c 0x00002000  # actual addr: 0x2003
write_reg 0x600c 0x00002200  # actual addr: 0x1803
write_reg 0x6010 0x00000000  # actual addr: 0x1804
write_reg 0x6014 0x000c000c  # actual addr: 0x1805
write_reg 0x6018 0x0000017f  # actual addr: 0x1806
write_reg 0x601c 0x00000000  # actual addr: 0x1807
write_reg 0x6020 0x00000000  # actual addr: 0x1808
write_reg 0x6024 0x0000004d  # actual addr: 0x1809
write_reg 0x6028 0x00000000  # actual addr: 0x180a
write_reg 0x602c 0x00020002  # actual addr: 0x180b
write_reg 0x6030 0x017f017f  # actual addr: 0x180c
write_reg 0x6034 0x00288000  # actual addr: 0x180d
write_reg 0x6038 0x00000000  # actual addr: 0x180e
write_reg 0x603c 0x000c000c  # actual addr: 0x180f
write_reg 0x6040 0x0000017f  # actual addr: 0x1810
write_reg 0x6044 0x000000a8  # actual addr: 0x1811
write_reg 0x6048 0x0000000c  # actual addr: 0x1812
write_reg 0x604c 0x00000000  # actual addr: 0x1813
write_reg 0x6050 0x00000000  # actual addr: 0x1814
write_reg 0x6054 0x00010001  # actual addr: 0x1815
write_reg 0x6058 0x00000000  # actual addr: 0x1816
write_reg 0x605c 0x00070003  # actual addr: 0x1817
write_reg 0x6060 0x00000000  # actual addr: 0x1818
write_reg 0x5014 0x00002200  # actual addr: 0x1405
write_reg 0x5018 0x00100000  # actual addr: 0x1406
write_reg 0x501c 0x000c000c  # actual addr: 0x1407
write_reg 0x5020 0x0000017f  # actual addr: 0x1408
write_reg 0x5024 0x000c000c  # actual addr: 0x1409
write_reg 0x502c 0x00000001  # actual addr: 0x140b
write_reg 0x5030 0x00000000  # actual addr: 0x140c
write_reg 0x5034 0xc06a0000  # actual addr: 0x140d
write_reg 0x5038 0x00000000  # actual addr: 0x140e
write_reg 0x503c 0xc06a0000  # actual addr: 0x140f
write_reg 0x5040 0x000001a0  # actual addr: 0x1410
write_reg 0x5048 0x00001520  # actual addr: 0x1412
write_reg 0x5044 0x00000000  # actual addr: 0x1411
write_reg 0x504c 0x00010001  # actual addr: 0x1413
write_reg 0x5058 0x00000000  # actual addr: 0x1416
write_reg 0x505c 0x00000000  # actual addr: 0x1417
write_reg 0x5060 0x0000004d  # actual addr: 0x1418
write_reg 0x5064 0x00000000  # actual addr: 0x1419
write_reg 0x5068 0x00000000  # actual addr: 0x141a
write_reg 0x506c 0x00001aff  # actual addr: 0x141b
write_reg 0x5070 0x0000017f  # actual addr: 0x141c
write_reg 0x5074 0x00000001  # actual addr: 0x141d
write_reg 0x5078 0x00000000  # actual addr: 0x141e
write_reg 0x507c 0xd0800000  # actual addr: 0x141f
write_reg 0x5080 0x00288000  # actual addr: 0x1420
write_reg 0x5098 0x00000000  # actual addr: 0x1426
write_reg 0x50a4 0x00000000  # actual addr: 0x1429
write_reg 0x50b0 0x00000000  # actual addr: 0x142c
write_reg 0x50b4 0x01010101  # actual addr: 0x142d
write_reg 0x50b8 0x00000000  # actual addr: 0x142e
write_reg 0x50bc 0x00070003  # actual addr: 0x142f
write_reg 0xf004 0x00000001  # actual addr: 0x3c01
write_reg 0xe004 0x00000001  # actual addr: 0x3801
write_reg 0xe008 0x00000001  # actual addr: 0x3802
write_reg 0xf048 0x00000001  # actual addr: 0x3c12
read_reg 0xb004 0xffffffff 0x00000000  # actual addr: 0x2c01
read_reg 0xa004 0xffffffff 0x00010000  # actual addr: 0x2801
write_reg 0xb004 0x00000001  # actual addr: 0x2c01
write_reg 0xa004 0x00000001  # actual addr: 0x2801
read_reg 0x4 0xffffffff 0x00000000  # actual addr: 0x0001
write_reg 0x4 0x00000000  # actual addr: 0x0001
write_reg 0xa070 0x00000000  # actual addr: 0x281c
write_reg 0xa028 0x00000000  # actual addr: 0x280a
write_reg 0xa040 0x00000000  # actual addr: 0x2810
write_reg 0xa058 0x00000000  # actual addr: 0x2816
write_reg 0xa070 0x000000a9  # actual addr: 0x281c
write_reg 0xa00c 0x0000000c  # actual addr: 0x2803
write_reg 0xa010 0x0000000c  # actual addr: 0x2804
write_reg 0xa014 0x0000017f  # actual addr: 0x2805
write_reg 0xa028 0x0000002a  # actual addr: 0x280a
write_reg 0xa02c 0xd0023000  # actual addr: 0x280b
write_reg 0xa030 0x00000000  # actual addr: 0x280c
write_reg 0xa034 0x00000020  # actual addr: 0x280d
write_reg 0xa038 0x00000020  # actual addr: 0x280e
write_reg 0xa040 0x00000031  # actual addr: 0x2810
write_reg 0xa058 0x00000031  # actual addr: 0x2816
write_reg 0xb03c 0x0000000c  # actual addr: 0x2c0f
write_reg 0xb040 0x0000000c  # actual addr: 0x2c10
write_reg 0xb044 0x0000017f  # actual addr: 0x2c11
write_reg 0xb04c 0x00000000  # actual addr: 0x2c13
write_reg 0xb048 0xc0680000  # actual addr: 0x2c12
write_reg 0xb050 0x000001a0  # actual addr: 0x2c14
write_reg 0xb054 0x00001520  # actual addr: 0x2c15
write_reg 0xb058 0x00000018  # actual addr: 0x2c16
write_reg 0xb05c 0x00000001  # actual addr: 0x2c17
write_reg 0xb064 0x00000001  # actual addr: 0x2c19
write_reg 0xb06c 0x00000053  # actual addr: 0x2c1b
write_reg 0xb080 0x00000053  # actual addr: 0x2c20
write_reg 0xb0b0 0x00000001  # actual addr: 0x2c2c
write_reg 0xb0b4 0x00000001  # actual addr: 0x2c2d
write_reg 0xb0bc 0x0000000a  # actual addr: 0x2c2f
write_reg 0xb0c0 0x00000000  # actual addr: 0x2c30
write_reg 0xb0c4 0x00000001  # actual addr: 0x2c31
write_reg 0xb0c8 0x00000000  # actual addr: 0x2c32
write_reg 0xb004 0x00000001  # actual addr: 0x2c01
write_reg 0xa004 0x00000001  # actual addr: 0x2801
write_reg 0xa008 0x00000001  # actual addr: 0x2802
write_reg 0xb038 0x00000001  # actual addr: 0x2c0e
read_reg 0x4 0xffffffff 0x00000000  # actual addr: 0x0001
read_reg 0xc 0xffffffff 0x00000008  # actual addr: 0x0003
write_reg 0xc 0x00000008  # actual addr: 0x0003
read_reg 0x4 0xffffffff 0x00000000  # actual addr: 0x0001
read_reg 0xc 0xffffffff 0x00000000  # actual addr: 0x0003
write_reg 0xd004 0x00000001  # actual addr: 0x3401
