read_reg 0x9004 0xffffffff 0x00000000  # actual addr: 0x2401
write_reg 0x9004 0x00000000  # actual addr: 0x2401
write_reg 0x7004 0x00000000  # actual addr: 0x1c01
write_reg 0x8004 0x00000000  # actual addr: 0x2001
write_reg 0x6004 0x00000000  # actual addr: 0x1801
write_reg 0x5004 0x00000000  # actual addr: 0x1401
read_reg 0x9000 0xffffffff 0x00000000  # actual addr: 0x2400
read_reg 0x7000 0xffffffff 0x00000000  # actual addr: 0x1c00
read_reg 0x8000 0xffffffff 0x00000000  # actual addr: 0x2000
read_reg 0x6000 0xffffffff 0x00000000  # actual addr: 0x1800
read_reg 0x5000 0xffffffff 0x00000000  # actual addr: 0x1400
write_reg 0x900c 0x00002000  # actual addr: 0x2403
write_reg 0x9010 0x001f001f  # actual addr: 0x2404
write_reg 0x9014 0x0000000f  # actual addr: 0x2405
write_reg 0x9018 0x00000000  # actual addr: 0x2406
write_reg 0x901c 0x00000000  # actual addr: 0x2407
write_reg 0x9020 0x00000400  # actual addr: 0x2408
write_reg 0x9024 0x00008000  # actual addr: 0x2409
write_reg 0x9028 0x00000000  # actual addr: 0x240a
write_reg 0x902c 0x00000000  # actual addr: 0x240b
write_reg 0x700c 0x00002000  # actual addr: 0x1c03
write_reg 0x800c 0x00002000  # actual addr: 0x2003
write_reg 0x600c 0x00002200  # actual addr: 0x1803
write_reg 0x6010 0x00000000  # actual addr: 0x1804
write_reg 0x6014 0x001f001f  # actual addr: 0x1805
write_reg 0x6018 0x00000002  # actual addr: 0x1806
write_reg 0x601c 0x00000000  # actual addr: 0x1807
write_reg 0x6020 0x00000000  # actual addr: 0x1808
write_reg 0x6024 0x00000007  # actual addr: 0x1809
write_reg 0x6028 0x00000000  # actual addr: 0x180a
write_reg 0x602c 0x00020002  # actual addr: 0x180b
write_reg 0x6030 0x000f0002  # actual addr: 0x180c
write_reg 0x6034 0x00000380  # actual addr: 0x180d
write_reg 0x6038 0x00000000  # actual addr: 0x180e
write_reg 0x603c 0x001f001f  # actual addr: 0x180f
write_reg 0x6040 0x0000000f  # actual addr: 0x1810
write_reg 0x6044 0x000003ff  # actual addr: 0x1811
write_reg 0x6048 0x0000001f  # actual addr: 0x1812
write_reg 0x604c 0x00000000  # actual addr: 0x1813
write_reg 0x6050 0x00000000  # actual addr: 0x1814
write_reg 0x6054 0x00010001  # actual addr: 0x1815
write_reg 0x6058 0x00000000  # actual addr: 0x1816
write_reg 0x605c 0x00000000  # actual addr: 0x1817
write_reg 0x6060 0x00000000  # actual addr: 0x1818
write_reg 0x5014 0x00002200  # actual addr: 0x1405
write_reg 0x5018 0x00100000  # actual addr: 0x1406
write_reg 0x501c 0x001f001f  # actual addr: 0x1407
write_reg 0x5020 0x00000002  # actual addr: 0x1408
write_reg 0x5024 0x001f001f  # actual addr: 0x1409
write_reg 0x502c 0x00000001  # actual addr: 0x140b
write_reg 0x5030 0x00000000  # actual addr: 0x140c
write_reg 0x5034 0xc0018000  # actual addr: 0x140d
write_reg 0x5038 0x00000000  # actual addr: 0x140e
write_reg 0x503c 0xc0018000  # actual addr: 0x140f
write_reg 0x5040 0x00000400  # actual addr: 0x1410
write_reg 0x5048 0x00008000  # actual addr: 0x1412
write_reg 0x5044 0x00000000  # actual addr: 0x1411
write_reg 0x504c 0x00010001  # actual addr: 0x1413
write_reg 0x5058 0x00000000  # actual addr: 0x1416
write_reg 0x505c 0x00000000  # actual addr: 0x1417
write_reg 0x5060 0x00000007  # actual addr: 0x1418
write_reg 0x5064 0x00000000  # actual addr: 0x1419
write_reg 0x5068 0x00000000  # actual addr: 0x141a
write_reg 0x506c 0x00000035  # actual addr: 0x141b
write_reg 0x5070 0x0000000f  # actual addr: 0x141c
write_reg 0x5074 0x00000001  # actual addr: 0x141d
write_reg 0x5078 0x00000000  # actual addr: 0x141e
write_reg 0x507c 0xc0100000  # actual addr: 0x141f
write_reg 0x5080 0x00000380  # actual addr: 0x1420
write_reg 0x5098 0x00000000  # actual addr: 0x1426
write_reg 0x50a4 0x00000000  # actual addr: 0x1429
write_reg 0x50b0 0x00000000  # actual addr: 0x142c
write_reg 0x50b4 0x01010101  # actual addr: 0x142d
write_reg 0x50b8 0x00000000  # actual addr: 0x142e
write_reg 0x50bc 0x00000000  # actual addr: 0x142f
read_reg 0x9004 0xffffffff 0x00000000  # actual addr: 0x2401
write_reg 0x9004 0x00000001  # actual addr: 0x2401
write_reg 0x7004 0x00000001  # actual addr: 0x1c01
write_reg 0x8004 0x00000001  # actual addr: 0x2001
write_reg 0x6004 0x00000001  # actual addr: 0x1801
write_reg 0x5004 0x00000001  # actual addr: 0x1401
read_reg 0x9000 0xffffffff 0x00000000  # actual addr: 0x2400
read_reg 0x7000 0xffffffff 0x00000000  # actual addr: 0x1c00
read_reg 0x8000 0xffffffff 0x00000000  # actual addr: 0x2000
read_reg 0x6000 0xffffffff 0x00000000  # actual addr: 0x1800
read_reg 0x5000 0xffffffff 0x00000000  # actual addr: 0x1400
write_reg 0x900c 0x00002000  # actual addr: 0x2403
write_reg 0x9010 0x001f001f  # actual addr: 0x2404
write_reg 0x9014 0x0000000f  # actual addr: 0x2405
write_reg 0x9018 0x00000000  # actual addr: 0x2406
write_reg 0x901c 0x00000000  # actual addr: 0x2407
write_reg 0x9020 0x00000400  # actual addr: 0x2408
write_reg 0x9024 0x00008000  # actual addr: 0x2409
write_reg 0x9028 0x00000000  # actual addr: 0x240a
write_reg 0x902c 0x00000000  # actual addr: 0x240b
write_reg 0x700c 0x00002000  # actual addr: 0x1c03
write_reg 0x800c 0x00002000  # actual addr: 0x2003
write_reg 0x600c 0x00002200  # actual addr: 0x1803
write_reg 0x6010 0x00000000  # actual addr: 0x1804
write_reg 0x6014 0x001f001f  # actual addr: 0x1805
write_reg 0x6018 0x0000000f  # actual addr: 0x1806
write_reg 0x601c 0x00000000  # actual addr: 0x1807
write_reg 0x6020 0x00000000  # actual addr: 0x1808
write_reg 0x6024 0x00000007  # actual addr: 0x1809
write_reg 0x6028 0x00000000  # actual addr: 0x180a
write_reg 0x602c 0x00020002  # actual addr: 0x180b
write_reg 0x6030 0x000f000f  # actual addr: 0x180c
write_reg 0x6034 0x00001200  # actual addr: 0x180d
write_reg 0x6038 0x00000000  # actual addr: 0x180e
write_reg 0x603c 0x001f001f  # actual addr: 0x180f
write_reg 0x6040 0x0000000f  # actual addr: 0x1810
write_reg 0x6044 0x000003ff  # actual addr: 0x1811
write_reg 0x6048 0x0000001f  # actual addr: 0x1812
write_reg 0x604c 0x00000000  # actual addr: 0x1813
write_reg 0x6050 0x00000000  # actual addr: 0x1814
write_reg 0x6054 0x00010001  # actual addr: 0x1815
write_reg 0x6058 0x00000000  # actual addr: 0x1816
write_reg 0x605c 0x00000000  # actual addr: 0x1817
write_reg 0x6060 0x00000000  # actual addr: 0x1818
write_reg 0x5014 0x00002200  # actual addr: 0x1405
write_reg 0x5018 0x00100000  # actual addr: 0x1406
write_reg 0x501c 0x001f001f  # actual addr: 0x1407
write_reg 0x5020 0x0000000f  # actual addr: 0x1408
write_reg 0x5024 0x001f001f  # actual addr: 0x1409
write_reg 0x502c 0x00000001  # actual addr: 0x140b
write_reg 0x5030 0x00000000  # actual addr: 0x140c
write_reg 0x5034 0xc0020000  # actual addr: 0x140d
write_reg 0x5038 0x00000000  # actual addr: 0x140e
write_reg 0x503c 0xc0020000  # actual addr: 0x140f
write_reg 0x5040 0x00000400  # actual addr: 0x1410
write_reg 0x5048 0x00008000  # actual addr: 0x1412
write_reg 0x5044 0x00000000  # actual addr: 0x1411
write_reg 0x504c 0x00010001  # actual addr: 0x1413
write_reg 0x5058 0x00000000  # actual addr: 0x1416
write_reg 0x505c 0x00000000  # actual addr: 0x1417
write_reg 0x5060 0x00000007  # actual addr: 0x1418
write_reg 0x5064 0x00000000  # actual addr: 0x1419
write_reg 0x5068 0x00000000  # actual addr: 0x141a
write_reg 0x506c 0x0000011f  # actual addr: 0x141b
write_reg 0x5070 0x0000000f  # actual addr: 0x141c
write_reg 0x5074 0x00000001  # actual addr: 0x141d
write_reg 0x5078 0x00000000  # actual addr: 0x141e
write_reg 0x507c 0xc0102000  # actual addr: 0x141f
write_reg 0x5080 0x00001200  # actual addr: 0x1420
write_reg 0x5098 0x00000000  # actual addr: 0x1426
write_reg 0x50a4 0x00000000  # actual addr: 0x1429
write_reg 0x50b0 0x00000000  # actual addr: 0x142c
write_reg 0x50b4 0x01010101  # actual addr: 0x142d
write_reg 0x50b8 0x00000000  # actual addr: 0x142e
write_reg 0x50bc 0x00000000  # actual addr: 0x142f
read_reg 0xb004 0xffffffff 0x00000000  # actual addr: 0x2c01
read_reg 0xa004 0xffffffff 0x00000000  # actual addr: 0x2801
write_reg 0xb004 0x00000000  # actual addr: 0x2c01
write_reg 0xa004 0x00000000  # actual addr: 0x2801
read_reg 0x4 0xffffffff 0x00000000  # actual addr: 0x0001
write_reg 0x4 0x00000000  # actual addr: 0x0001
write_reg 0xa070 0x00000000  # actual addr: 0x281c
write_reg 0xa028 0x00000000  # actual addr: 0x280a
write_reg 0xa040 0x00000000  # actual addr: 0x2810
write_reg 0xa058 0x00000000  # actual addr: 0x2816
write_reg 0xa070 0x000000a9  # actual addr: 0x281c
write_reg 0xa00c 0x0000001f  # actual addr: 0x2803
write_reg 0xa010 0x0000001f  # actual addr: 0x2804
write_reg 0xa014 0x0000000f  # actual addr: 0x2805
write_reg 0xa028 0x0000002a  # actual addr: 0x280a
write_reg 0xa02c 0xc0101000  # actual addr: 0x280b
write_reg 0xa030 0x00000000  # actual addr: 0x280c
write_reg 0xa034 0x00000020  # actual addr: 0x280d
write_reg 0xa038 0x00000020  # actual addr: 0x280e
write_reg 0xa040 0x00000031  # actual addr: 0x2810
write_reg 0xa058 0x00000031  # actual addr: 0x2816
write_reg 0xb03c 0x0000001f  # actual addr: 0x2c0f
write_reg 0xb040 0x0000001f  # actual addr: 0x2c10
write_reg 0xb044 0x0000000f  # actual addr: 0x2c11
write_reg 0xb04c 0x00000000  # actual addr: 0x2c13
write_reg 0xb048 0xc0020000  # actual addr: 0x2c12
write_reg 0xb050 0x00000400  # actual addr: 0x2c14
write_reg 0xb054 0x00008000  # actual addr: 0x2c15
write_reg 0xb058 0x00000018  # actual addr: 0x2c16
write_reg 0xb05c 0x00000001  # actual addr: 0x2c17
write_reg 0xb064 0x00000001  # actual addr: 0x2c19
write_reg 0xb06c 0x00000053  # actual addr: 0x2c1b
write_reg 0xb080 0x00000053  # actual addr: 0x2c20
write_reg 0xb0b0 0x00000001  # actual addr: 0x2c2c
write_reg 0xb0b4 0x00000001  # actual addr: 0x2c2d
write_reg 0xb0bc 0x0000000a  # actual addr: 0x2c2f
write_reg 0xb0c0 0x00000000  # actual addr: 0x2c30
write_reg 0xb0c4 0x00000001  # actual addr: 0x2c31
write_reg 0xb0c8 0x00000000  # actual addr: 0x2c32
write_reg 0xb004 0x00000000  # actual addr: 0x2c01
write_reg 0xa004 0x00000000  # actual addr: 0x2801
write_reg 0xa008 0x00000001  # actual addr: 0x2802
write_reg 0xb038 0x00000001  # actual addr: 0x2c0e
write_reg 0x9004 0x00000000  # actual addr: 0x2401
write_reg 0x7004 0x00000000  # actual addr: 0x1c01
write_reg 0x8004 0x00000000  # actual addr: 0x2001
write_reg 0x6004 0x00000000  # actual addr: 0x1801
write_reg 0x5004 0x00000000  # actual addr: 0x1401
read_reg 0x500c 0xffffffff 0x00000001  # actual addr: 0x1403
write_reg 0x9008 0x00000001  # actual addr: 0x2402
write_reg 0x7008 0x00000001  # actual addr: 0x1c02
write_reg 0x8008 0x00000001  # actual addr: 0x2002
write_reg 0x6008 0x00000001  # actual addr: 0x1802
write_reg 0x5010 0x00000001  # actual addr: 0x1404
read_reg 0xb004 0xffffffff 0x00000000  # actual addr: 0x2c01
read_reg 0xa004 0xffffffff 0x00010000  # actual addr: 0x2801
write_reg 0xb004 0x00000001  # actual addr: 0x2c01
write_reg 0xa004 0x00000001  # actual addr: 0x2801
read_reg 0x4 0xffffffff 0x00000000  # actual addr: 0x0001
write_reg 0x4 0x00000000  # actual addr: 0x0001
write_reg 0xa070 0x00000000  # actual addr: 0x281c
write_reg 0xa028 0x00000000  # actual addr: 0x280a
write_reg 0xa040 0x00000000  # actual addr: 0x2810
write_reg 0xa058 0x00000000  # actual addr: 0x2816
write_reg 0xa070 0x000000a9  # actual addr: 0x281c
write_reg 0xa00c 0x0000001f  # actual addr: 0x2803
write_reg 0xa010 0x0000001f  # actual addr: 0x2804
write_reg 0xa014 0x0000000f  # actual addr: 0x2805
write_reg 0xa028 0x0000002a  # actual addr: 0x280a
write_reg 0xa02c 0xc0104000  # actual addr: 0x280b
write_reg 0xa030 0x00000000  # actual addr: 0x280c
write_reg 0xa034 0x00000020  # actual addr: 0x280d
write_reg 0xa038 0x00000020  # actual addr: 0x280e
write_reg 0xa040 0x00000031  # actual addr: 0x2810
write_reg 0xa058 0x00000031  # actual addr: 0x2816
write_reg 0xb03c 0x0000001f  # actual addr: 0x2c0f
write_reg 0xb040 0x0000001f  # actual addr: 0x2c10
write_reg 0xb044 0x0000000f  # actual addr: 0x2c11
write_reg 0xb04c 0x00000000  # actual addr: 0x2c13
write_reg 0xb048 0xc0028000  # actual addr: 0x2c12
write_reg 0xb050 0x00000400  # actual addr: 0x2c14
write_reg 0xb054 0x00008000  # actual addr: 0x2c15
write_reg 0xb058 0x00000018  # actual addr: 0x2c16
write_reg 0xb05c 0x00000001  # actual addr: 0x2c17
write_reg 0xb064 0x00000001  # actual addr: 0x2c19
write_reg 0xb06c 0x00000053  # actual addr: 0x2c1b
write_reg 0xb080 0x00000053  # actual addr: 0x2c20
write_reg 0xb0b0 0x00000001  # actual addr: 0x2c2c
write_reg 0xb0b4 0x00000001  # actual addr: 0x2c2d
write_reg 0xb0bc 0x0000000a  # actual addr: 0x2c2f
write_reg 0xb0c0 0x00000000  # actual addr: 0x2c30
write_reg 0xb0c4 0x00000001  # actual addr: 0x2c31
write_reg 0xb0c8 0x00000000  # actual addr: 0x2c32
write_reg 0xb004 0x00000001  # actual addr: 0x2c01
write_reg 0xa004 0x00000001  # actual addr: 0x2801
write_reg 0xa008 0x00000001  # actual addr: 0x2802
write_reg 0xb038 0x00000001  # actual addr: 0x2c0e
read_reg 0xd004 0xffffffff 0x00000000  # actual addr: 0x3401
read_reg 0xc004 0xffffffff 0x00000000  # actual addr: 0x3001
write_reg 0xd004 0x00000000  # actual addr: 0x3401
read_reg 0x4 0xffffffff 0x00000000  # actual addr: 0x0001
read_reg 0xc 0xffffffff 0x00040000  # actual addr: 0x0003
write_reg 0xc 0x00040000  # actual addr: 0x0003
read_reg 0x4 0xffffffff 0x00000000  # actual addr: 0x0001
read_reg 0xc 0xffffffff 0x00000000  # actual addr: 0x0003
write_reg 0xc004 0x00000000  # actual addr: 0x3001
read_reg 0x4 0xffffffff 0x00000000  # actual addr: 0x0001
write_reg 0x4 0x00000000  # actual addr: 0x0001
write_reg 0xc00c 0x00000007  # actual addr: 0x3003
write_reg 0xc010 0x00000007  # actual addr: 0x3004
write_reg 0xc014 0x0000003f  # actual addr: 0x3005
write_reg 0xc020 0x00000000  # actual addr: 0x3008
write_reg 0xc01c 0xc0038000  # actual addr: 0x3007
write_reg 0xc024 0x00000100  # actual addr: 0x3009
write_reg 0xc028 0x00000800  # actual addr: 0x300a
write_reg 0xc030 0x00000002  # actual addr: 0x300c
write_reg 0xc02c 0x00000001  # actual addr: 0x300b
write_reg 0xc034 0x00000000  # actual addr: 0x300d
write_reg 0xc038 0x00000007  # actual addr: 0x300e
write_reg 0xc03c 0x00000000  # actual addr: 0x300f
write_reg 0xc040 0x00000000  # actual addr: 0x3010
write_reg 0xd00c 0x00000007  # actual addr: 0x3403
write_reg 0xd010 0x00000007  # actual addr: 0x3404
write_reg 0xd014 0x0000003f  # actual addr: 0x3405
write_reg 0xd018 0x00000000  # actual addr: 0x3406
write_reg 0xd01c 0x00000000  # actual addr: 0x3407
write_reg 0xd020 0x0000003f  # actual addr: 0x3408
write_reg 0xd024 0x00000010  # actual addr: 0x3409
write_reg 0xd02c 0x00000000  # actual addr: 0x340b
write_reg 0xd030 0x00000000  # actual addr: 0x340c
write_reg 0xd034 0x00000707  # actual addr: 0x340d
write_reg 0xd038 0x00007000  # actual addr: 0x340e
write_reg 0xd03c 0x00007000  # actual addr: 0x340f
write_reg 0xd040 0x00000000  # actual addr: 0x3410
write_reg 0xd044 0x00000000  # actual addr: 0x3411
write_reg 0xd048 0x00000000  # actual addr: 0x3412
write_reg 0xd04c 0x00000000  # actual addr: 0x3413
write_reg 0xd050 0x00000000  # actual addr: 0x3414
write_reg 0xd054 0x00000000  # actual addr: 0x3415
write_reg 0xd058 0x00000000  # actual addr: 0x3416
write_reg 0xd05c 0x00000000  # actual addr: 0x3417
write_reg 0xd068 0x00000100  # actual addr: 0x341a
write_reg 0xd06c 0x00000800  # actual addr: 0x341b
write_reg 0xd070 0xc003a000  # actual addr: 0x341c
write_reg 0xd074 0x00000000  # actual addr: 0x341d
write_reg 0xd078 0x00000020  # actual addr: 0x341e
write_reg 0xd07c 0x00000020  # actual addr: 0x341f
write_reg 0xd080 0x00000001  # actual addr: 0x3420
write_reg 0xd084 0x00000002  # actual addr: 0x3421
read_reg 0x4 0xffffffff 0x00000000  # actual addr: 0x0001
read_reg 0xc 0xffffffff 0x00010000  # actual addr: 0x0003
write_reg 0xc 0x00010000  # actual addr: 0x0003
read_reg 0x4 0xffffffff 0x00000000  # actual addr: 0x0001
read_reg 0xc 0xffffffff 0x00000000  # actual addr: 0x0003
read_reg 0x4 0xffffffff 0x00000000  # actual addr: 0x0001
read_reg 0xc 0xffffffff 0x00100001  # actual addr: 0x0003
write_reg 0xc 0x00100001  # actual addr: 0x0003
read_reg 0x4 0xffffffff 0x00000000  # actual addr: 0x0001
read_reg 0xc 0xffffffff 0x00000000  # actual addr: 0x0003
read_reg 0x9004 0xffffffff 0x00010000  # actual addr: 0x2401
write_reg 0x9004 0x00000000  # actual addr: 0x2401
write_reg 0x7004 0x00000000  # actual addr: 0x1c01
write_reg 0x8004 0x00000000  # actual addr: 0x2001
write_reg 0x6004 0x00000000  # actual addr: 0x1801
write_reg 0x5004 0x00000000  # actual addr: 0x1401
read_reg 0x9000 0xffffffff 0x00000000  # actual addr: 0x2400
read_reg 0x7000 0xffffffff 0x00000000  # actual addr: 0x1c00
read_reg 0x8000 0xffffffff 0x00000000  # actual addr: 0x2000
read_reg 0x6000 0xffffffff 0x00000000  # actual addr: 0x1800
read_reg 0x5000 0xffffffff 0x00000000  # actual addr: 0x1400
write_reg 0x900c 0x00002000  # actual addr: 0x2403
write_reg 0x9010 0x001f001f  # actual addr: 0x2404
write_reg 0x9014 0x0000000f  # actual addr: 0x2405
write_reg 0x9018 0x00000000  # actual addr: 0x2406
write_reg 0x901c 0x00000000  # actual addr: 0x2407
write_reg 0x9020 0x00000400  # actual addr: 0x2408
write_reg 0x9024 0x00008000  # actual addr: 0x2409
write_reg 0x9028 0x00000000  # actual addr: 0x240a
write_reg 0x902c 0x00000000  # actual addr: 0x240b
write_reg 0x700c 0x00002000  # actual addr: 0x1c03
write_reg 0x800c 0x00002000  # actual addr: 0x2003
write_reg 0x600c 0x00002200  # actual addr: 0x1803
write_reg 0x6010 0x00000000  # actual addr: 0x1804
write_reg 0x6014 0x001f001f  # actual addr: 0x1805
write_reg 0x6018 0x0000000f  # actual addr: 0x1806
write_reg 0x601c 0x00000000  # actual addr: 0x1807
write_reg 0x6020 0x00000000  # actual addr: 0x1808
write_reg 0x6024 0x00000007  # actual addr: 0x1809
write_reg 0x6028 0x00000000  # actual addr: 0x180a
write_reg 0x602c 0x00020002  # actual addr: 0x180b
write_reg 0x6030 0x000f000f  # actual addr: 0x180c
write_reg 0x6034 0x00001200  # actual addr: 0x180d
write_reg 0x6038 0x00000000  # actual addr: 0x180e
write_reg 0x603c 0x001f001f  # actual addr: 0x180f
write_reg 0x6040 0x0000000f  # actual addr: 0x1810
write_reg 0x6044 0x000003ff  # actual addr: 0x1811
write_reg 0x6048 0x0000001f  # actual addr: 0x1812
write_reg 0x604c 0x00000000  # actual addr: 0x1813
write_reg 0x6050 0x00000000  # actual addr: 0x1814
write_reg 0x6054 0x00010001  # actual addr: 0x1815
write_reg 0x6058 0x00000000  # actual addr: 0x1816
write_reg 0x605c 0x00000000  # actual addr: 0x1817
write_reg 0x6060 0x00000000  # actual addr: 0x1818
write_reg 0x5014 0x00002200  # actual addr: 0x1405
write_reg 0x5018 0x00100000  # actual addr: 0x1406
write_reg 0x501c 0x001f001f  # actual addr: 0x1407
write_reg 0x5020 0x0000000f  # actual addr: 0x1408
write_reg 0x5024 0x001f001f  # actual addr: 0x1409
write_reg 0x502c 0x00000001  # actual addr: 0x140b
write_reg 0x5030 0x00000000  # actual addr: 0x140c
write_reg 0x5034 0xc0028000  # actual addr: 0x140d
write_reg 0x5038 0x00000000  # actual addr: 0x140e
write_reg 0x503c 0xc0028000  # actual addr: 0x140f
write_reg 0x5040 0x00000400  # actual addr: 0x1410
write_reg 0x5048 0x00008000  # actual addr: 0x1412
write_reg 0x5044 0x00000000  # actual addr: 0x1411
write_reg 0x504c 0x00010001  # actual addr: 0x1413
write_reg 0x5058 0x00000000  # actual addr: 0x1416
write_reg 0x505c 0x00000000  # actual addr: 0x1417
write_reg 0x5060 0x00000007  # actual addr: 0x1418
write_reg 0x5064 0x00000000  # actual addr: 0x1419
write_reg 0x5068 0x00000000  # actual addr: 0x141a
write_reg 0x506c 0x0000011f  # actual addr: 0x141b
write_reg 0x5070 0x0000000f  # actual addr: 0x141c
write_reg 0x5074 0x00000001  # actual addr: 0x141d
write_reg 0x5078 0x00000000  # actual addr: 0x141e
write_reg 0x507c 0xc0106000  # actual addr: 0x141f
write_reg 0x5080 0x00001200  # actual addr: 0x1420
write_reg 0x5098 0x00000000  # actual addr: 0x1426
write_reg 0x50a4 0x00000000  # actual addr: 0x1429
write_reg 0x50b0 0x00000000  # actual addr: 0x142c
write_reg 0x50b4 0x01010101  # actual addr: 0x142d
write_reg 0x50b8 0x00000000  # actual addr: 0x142e
write_reg 0x50bc 0x00000000  # actual addr: 0x142f
write_reg 0x9004 0x00000001  # actual addr: 0x2401
write_reg 0x7004 0x00000001  # actual addr: 0x1c01
write_reg 0x8004 0x00000001  # actual addr: 0x2001
write_reg 0x6004 0x00000001  # actual addr: 0x1801
write_reg 0x5004 0x00000001  # actual addr: 0x1401
read_reg 0x500c 0xffffffff 0x00000001  # actual addr: 0x1403
write_reg 0x9008 0x00000001  # actual addr: 0x2402
write_reg 0x7008 0x00000001  # actual addr: 0x1c02
write_reg 0x8008 0x00000001  # actual addr: 0x2002
write_reg 0x6008 0x00000001  # actual addr: 0x1802
write_reg 0x5010 0x00000001  # actual addr: 0x1404
read_reg 0xb004 0xffffffff 0x00010001  # actual addr: 0x2c01
read_reg 0xa004 0xffffffff 0x00000001  # actual addr: 0x2801
write_reg 0xb004 0x00000000  # actual addr: 0x2c01
write_reg 0xa004 0x00000000  # actual addr: 0x2801
read_reg 0x4 0xffffffff 0x00000000  # actual addr: 0x0001
write_reg 0x4 0x00000000  # actual addr: 0x0001
write_reg 0xa070 0x00000000  # actual addr: 0x281c
write_reg 0xa028 0x00000000  # actual addr: 0x280a
write_reg 0xa040 0x00000000  # actual addr: 0x2810
write_reg 0xa058 0x00000000  # actual addr: 0x2816
write_reg 0xa070 0x000000a9  # actual addr: 0x281c
write_reg 0xa00c 0x0000001f  # actual addr: 0x2803
write_reg 0xa010 0x0000001f  # actual addr: 0x2804
write_reg 0xa014 0x0000000f  # actual addr: 0x2805
write_reg 0xa028 0x0000002a  # actual addr: 0x280a
write_reg 0xa02c 0xc0105000  # actual addr: 0x280b
write_reg 0xa030 0x00000000  # actual addr: 0x280c
write_reg 0xa034 0x00000020  # actual addr: 0x280d
write_reg 0xa038 0x00000020  # actual addr: 0x280e
write_reg 0xa040 0x0000003a  # actual addr: 0x2810
write_reg 0xa044 0xc0020000  # actual addr: 0x2811
write_reg 0xa048 0x00000000  # actual addr: 0x2812
write_reg 0xa04c 0x00000400  # actual addr: 0x2813
write_reg 0xa050 0x00008000  # actual addr: 0x2814
write_reg 0xa058 0x00000031  # actual addr: 0x2816
write_reg 0xb03c 0x0000001f  # actual addr: 0x2c0f
write_reg 0xb040 0x0000001f  # actual addr: 0x2c10
write_reg 0xb044 0x0000000f  # actual addr: 0x2c11
write_reg 0xb04c 0x00000000  # actual addr: 0x2c13
write_reg 0xb048 0xc0030000  # actual addr: 0x2c12
write_reg 0xb050 0x00000400  # actual addr: 0x2c14
write_reg 0xb054 0x00008000  # actual addr: 0x2c15
write_reg 0xb058 0x00000058  # actual addr: 0x2c16
write_reg 0xb05c 0x00000001  # actual addr: 0x2c17
write_reg 0xb064 0x00000001  # actual addr: 0x2c19
write_reg 0xb06c 0x00000018  # actual addr: 0x2c1b
write_reg 0xb070 0x00000001  # actual addr: 0x2c1c
write_reg 0xb078 0x00000001  # actual addr: 0x2c1e
write_reg 0xb080 0x00000053  # actual addr: 0x2c20
write_reg 0xb0b0 0x00000001  # actual addr: 0x2c2c
write_reg 0xb0b4 0x00000001  # actual addr: 0x2c2d
write_reg 0xb0bc 0x0000000a  # actual addr: 0x2c2f
write_reg 0xb0c0 0x00000000  # actual addr: 0x2c30
write_reg 0xb0c4 0x00000001  # actual addr: 0x2c31
write_reg 0xb0c8 0x00000000  # actual addr: 0x2c32
write_reg 0xb004 0x00000000  # actual addr: 0x2c01
write_reg 0xa004 0x00000000  # actual addr: 0x2801
write_reg 0xa008 0x00000001  # actual addr: 0x2802
write_reg 0xb038 0x00000001  # actual addr: 0x2c0e
read_reg 0x4 0xffffffff 0x00000000  # actual addr: 0x0001
read_reg 0xc 0xffffffff 0x00080000  # actual addr: 0x0003
write_reg 0xc 0x00080000  # actual addr: 0x0003
read_reg 0x4 0xffffffff 0x00000000  # actual addr: 0x0001
read_reg 0xc 0xffffffff 0x00000000  # actual addr: 0x0003
read_reg 0x4 0xffffffff 0x00000000  # actual addr: 0x0001
read_reg 0xc 0xffffffff 0x00220002  # actual addr: 0x0003
write_reg 0xc 0x00220002  # actual addr: 0x0003
read_reg 0x4 0xffffffff 0x00000000  # actual addr: 0x0001
read_reg 0xc 0xffffffff 0x00000000  # actual addr: 0x0003
read_reg 0x9004 0xffffffff 0x00000001  # actual addr: 0x2401
write_reg 0x9004 0x00000001  # actual addr: 0x2401
write_reg 0x7004 0x00000001  # actual addr: 0x1c01
write_reg 0x8004 0x00000001  # actual addr: 0x2001
write_reg 0x6004 0x00000001  # actual addr: 0x1801
write_reg 0x5004 0x00000001  # actual addr: 0x1401
read_reg 0x9000 0xffffffff 0x00000000  # actual addr: 0x2400
read_reg 0x7000 0xffffffff 0x00000000  # actual addr: 0x1c00
read_reg 0x8000 0xffffffff 0x00000000  # actual addr: 0x2000
read_reg 0x6000 0xffffffff 0x00000000  # actual addr: 0x1800
read_reg 0x5000 0xffffffff 0x00000000  # actual addr: 0x1400
write_reg 0x900c 0x00002000  # actual addr: 0x2403
write_reg 0x9010 0x001f001f  # actual addr: 0x2404
write_reg 0x9014 0x0000000f  # actual addr: 0x2405
write_reg 0x9018 0x00000000  # actual addr: 0x2406
write_reg 0x901c 0x00000000  # actual addr: 0x2407
write_reg 0x9020 0x00000400  # actual addr: 0x2408
write_reg 0x9024 0x00008000  # actual addr: 0x2409
write_reg 0x9028 0x00000000  # actual addr: 0x240a
write_reg 0x902c 0x00000000  # actual addr: 0x240b
write_reg 0x700c 0x00002000  # actual addr: 0x1c03
write_reg 0x800c 0x00002000  # actual addr: 0x2003
write_reg 0x600c 0x00002200  # actual addr: 0x1803
write_reg 0x6010 0x00000000  # actual addr: 0x1804
write_reg 0x6014 0x001f001f  # actual addr: 0x1805
write_reg 0x6018 0x0000000f  # actual addr: 0x1806
